
SetupTitle, output RollOut
PrimitiveTest, I/V Sweep
TestParameter, Context.MainFrame, 4155C
TestParameter, Channel.UnitType, SMU, SMU, SMU
TestParameter, Channel.Unit, SMU1:MP, SMU2:MP, SMU3:MP
TestParameter, Channel.IName, ID, IG, IS
TestParameter, Channel.VName, VD, VG, VS
TestParameter, Channel.Mode, V, V, COMMON
TestParameter, Channel.Func, VAR1, VAR2, CONST
TestParameter, Channel.Index, 
TestParameter, Channel.Time, 
TestParameter, Measurement.Port.Unit, SMU1:MP, SMU2:MP, SMU3:MP
TestParameter, Measurement.Port.SeriesResistor, NONE, NONE, NONE
TestParameter, Measurement.Port.Filter, ON, ON, ON
TestParameter, Measurement.Primary.Locus, Single
TestParameter, Measurement.Primary.Scale, LINEAR
TestParameter, Measurement.Primary.Start, 0
TestParameter, Measurement.Primary.Stop, 7
TestParameter, Measurement.Primary.Step, 0.1
TestParameter, Measurement.Primary.Compliance, 0.01
TestParameter, Measurement.Primary.PowerCompliance, 0
TestParameter, Measurement.Aborting.Condition, CONTINUE AT ANY
TestParameter, Measurement.PostOutput.Value, START
TestParameter, Measurement.PostOutput.Retention, OFF
TestParameter, Measurement.Secondary.Start, -1
TestParameter, Measurement.Secondary.Count, 9
TestParameter, Measurement.Secondary.Step, 1
TestParameter, Measurement.Secondary.Compliance, 1E-08
TestParameter, Measurement.Secondary.PowerCompliance, 0
TestParameter, Measurement.Bias.Source, 0, -1, 0
TestParameter, Measurement.Bias.Compliance, 0.01, 1E-08, 0.1
TestParameter, Measurement.Monitor.Unit, SMU1:MP, SMU2:MP, SMU3:MP
TestParameter, Measurement.Monitor.Adc, HR ADC, HR ADC, HR ADC
TestParameter, Measurement.Monitor.RangingMode, LIMITED, LIMITED, LIMITED
TestParameter, Measurement.Monitor.RangeBoundary, 1nA, 1nA, 1nA
TestParameter, Measurement.Monitor.RangeRating, BY FULL RANGE, BY FULL RANGE, BY FULL RANGE
TestParameter, Measurement.Monitor.RangeRatingCoeff, 50, 50, 50
TestParameter, Measurement.Timing.Hold, 0
TestParameter, Measurement.Timing.Delay, 0
TestParameter, Measurement.Adc.HighResolution.AutoZero, OFF
TestParameter, Measurement.Adc.HighResolution.Mode, AUTO
TestParameter, Measurement.Adc.HighResolution.Coeff, 6
TestParameter, Measurement.Ag16440ASelector.SemiconductorRelay.Channel1, DEFAULT
TestParameter, Measurement.Ag16440ASelector.SemiconductorRelay.Channel3, DEFAULT
TestParameter, Function.Analysis.Name, absIg, absId
TestParameter, Function.Analysis.Unit, A, A
TestParameter, Function.Analysis.Definition, abs(IG), abs(ID)
TestParameter, Output.Graph.Enabled, true
TestParameter, Output.Graph.AutoScaling, false
TestParameter, Output.Graph.XAxis.Data, VD
TestParameter, Output.Graph.XAxis.Scale, Linear
TestParameter, Output.Graph.XAxis.Left, 0
TestParameter, Output.Graph.XAxis.Right, 8
TestParameter, Output.Graph.XAxis.RunTimeAutoScale, true
TestParameter, Output.Graph.YAxis.Data, absId, absIg
TestParameter, Output.Graph.YAxis.Scale, Linear, Log
TestParameter, Output.Graph.YAxis.Bottom, 0, 0
TestParameter, Output.Graph.YAxis.Top, 1, 1
TestParameter, Output.Graph.YAxis.Group, , 
TestParameter, Output.Graph.YAxis.RunTimeAutoScale, true, true
TestParameter, Output.List.Data, VG, IG, ID, IS, IS, VD, absIg, absId
TestParameter, AutoAnalysis.Interpolation, false
TestParameter, AutoAnalysis.Var2StepCount, 1
TestParameter, AutoAnalysis.Var2StepScript, 
TestParameter, AutoAnalysis.Line1.Enabled, false
TestParameter, AutoAnalysis.Line1.Type, 1
TestParameter, AutoAnalysis.Line1.Fix, True
TestParameter, AutoAnalysis.Line1.YAxis, 0
TestParameter, AutoAnalysis.Line1.Point1.Type, 0
TestParameter, AutoAnalysis.Line1.Point1.XY.X, 
TestParameter, AutoAnalysis.Line1.Point1.XY.Y, 
TestParameter, AutoAnalysis.Line1.Point1.Data.Var, 
TestParameter, AutoAnalysis.Line1.Point1.Data.Condition, 
TestParameter, AutoAnalysis.Line1.Point1.Data.Start, false
TestParameter, AutoAnalysis.Line1.Point1.Data.StartVar, 
TestParameter, AutoAnalysis.Line1.Point1.Data.StartCondition, 
TestParameter, AutoAnalysis.Line1.Point2.Type, 0
TestParameter, AutoAnalysis.Line1.Point2.XY.X, 
TestParameter, AutoAnalysis.Line1.Point2.XY.Y, 
TestParameter, AutoAnalysis.Line1.Point2.Data.Var, 
TestParameter, AutoAnalysis.Line1.Point2.Data.Condition, 
TestParameter, AutoAnalysis.Line1.Point2.Data.Start, false
TestParameter, AutoAnalysis.Line1.Point2.Data.StartVar, 
TestParameter, AutoAnalysis.Line1.Point2.Data.StartCondition, 
TestParameter, AutoAnalysis.Line1.GradientExpr, 0
TestParameter, AutoAnalysis.Line2.Enabled, false
TestParameter, AutoAnalysis.Line2.Type, 1
TestParameter, AutoAnalysis.Line2.Fix, True
TestParameter, AutoAnalysis.Line2.YAxis, 0
TestParameter, AutoAnalysis.Line2.Point1.Type, 0
TestParameter, AutoAnalysis.Line2.Point1.XY.X, 
TestParameter, AutoAnalysis.Line2.Point1.XY.Y, 
TestParameter, AutoAnalysis.Line2.Point1.Data.Var, 
TestParameter, AutoAnalysis.Line2.Point1.Data.Condition, 
TestParameter, AutoAnalysis.Line2.Point1.Data.Start, false
TestParameter, AutoAnalysis.Line2.Point1.Data.StartVar, 
TestParameter, AutoAnalysis.Line2.Point1.Data.StartCondition, 
TestParameter, AutoAnalysis.Line2.Point2.Type, 0
TestParameter, AutoAnalysis.Line2.Point2.XY.X, 
TestParameter, AutoAnalysis.Line2.Point2.XY.Y, 
TestParameter, AutoAnalysis.Line2.Point2.Data.Var, 
TestParameter, AutoAnalysis.Line2.Point2.Data.Condition, 
TestParameter, AutoAnalysis.Line2.Point2.Data.Start, false
TestParameter, AutoAnalysis.Line2.Point2.Data.StartVar, 
TestParameter, AutoAnalysis.Line2.Point2.Data.StartCondition, 
TestParameter, AutoAnalysis.Line2.GradientExpr, 0
TestParameter, AutoAnalysis.Marker.Enabled, false
TestParameter, AutoAnalysis.Marker.Data.Var, 
TestParameter, AutoAnalysis.Marker.Data.Condition, 
TestParameter, AutoAnalysis.Marker.Data.Start, false
TestParameter, AutoAnalysis.Marker.Data.StartVar, 
TestParameter, AutoAnalysis.Marker.Data.StartCondition, 
MetaData, TestRecord.EntryPoint, true
MetaData, TestRecord.RecordTime, 03/10/2020 10:19:23
MetaData, TestRecord.TestTarget, P1G3_50-10
MetaData, TestRecord.IterationIndex, 1
MetaData, TestRecord.Preservation, true
MetaData, TestRecord.Flag, 
MetaData, TestRecord.Remarks, output
MetaData, TestRecord.LinkKey, c0e4eb9f-4bc8-495f-9320-5a7d2be56259
MetaData, TestRecord.Parameters, 
Dimension1, 71, 71, 71, 71, 71, 71, 71
Dimension2, 9, 9, 9, 9, 9, 9, 9
DataName, VD, VG, ID, IG, IS, absIg, absId
DataValue, 0, -1, -1.116E-12, -5.46E-13, 3.18E-13, 5.46E-13, 1.116E-12
DataValue, 0.1, -1, 7.26E-13, -2.4000000000000002E-14, 1.69E-13, 2.4000000000000002E-14, 7.26E-13
DataValue, 0.2, -1, 2.2900000000000003E-13, -1.0400000000000001E-13, 1.19E-13, 1.0400000000000001E-13, 2.2900000000000003E-13
DataValue, 0.3, -1, 5.2000000000000006E-14, -2.7000000000000002E-14, -2.4000000000000002E-14, 2.7000000000000002E-14, 5.2000000000000006E-14
DataValue, 0.4, -1, -1.99E-13, -4.5900000000000006E-13, -1.1000000000000001E-13, 4.5900000000000006E-13, 1.99E-13
DataValue, 0.5, -1, -3.64E-13, 1.2600000000000002E-13, -1.6200000000000002E-13, 1.2600000000000002E-13, 3.64E-13
DataValue, 0.6, -1, -2.9800000000000004E-13, -1.9700000000000002E-13, -1.7E-13, 1.9700000000000002E-13, 2.9800000000000004E-13
DataValue, 0.70000000000000007, -1, -3.5600000000000005E-13, -2.93E-13, -1.7300000000000002E-13, 2.93E-13, 3.5600000000000005E-13
DataValue, 0.8, -1, -2.8900000000000003E-13, 1E-15, -1.4300000000000002E-13, 1E-15, 2.8900000000000003E-13
DataValue, 0.9, -1, -8.4000000000000008E-14, 2.0700000000000003E-13, -2.37E-13, 2.0700000000000003E-13, 8.4000000000000008E-14
DataValue, 1, -1, -6.0000000000000005E-15, 2.6000000000000003E-14, -9.1E-14, 2.6000000000000003E-14, 6.0000000000000005E-15
DataValue, 1.1, -1, -1.4E-14, 1.8500000000000002E-13, -1.1E-14, 1.8500000000000002E-13, 1.4E-14
DataValue, 1.2, -1, 1.52E-13, 1.69E-13, 5E-14, 1.69E-13, 1.52E-13
DataValue, 1.3, -1, 1.83E-13, -1.88E-13, 1.4E-14, 1.88E-13, 1.83E-13
DataValue, 1.4000000000000001, -1, 1E-13, 1.3300000000000001E-13, 6.3000000000000009E-14, 1.3300000000000001E-13, 1E-13
DataValue, 1.5, -1, 2.06E-13, -2.0400000000000001E-13, -1.0000000000000002E-14, 2.0400000000000001E-13, 2.06E-13
DataValue, 1.6, -1, -1.4E-13, -7.7E-14, -5E-14, 7.7E-14, 1.4E-13
DataValue, 1.7000000000000002, -1, 4E-15, 1.7E-14, -1.47E-13, 1.7E-14, 4E-15
DataValue, 1.8, -1, -9.3000000000000008E-14, -2.11E-13, -1.4300000000000002E-13, 2.11E-13, 9.3000000000000008E-14
DataValue, 1.9000000000000001, -1, -2.84E-13, 9.4E-14, -1.19E-13, 9.4E-14, 2.84E-13
DataValue, 2, -1, -2.8E-13, -2.8E-14, -1.36E-13, 2.8E-14, 2.8E-13
DataValue, 2.1, -1, -2.1000000000000001E-13, -1.5600000000000002E-13, -1.64E-13, 1.5600000000000002E-13, 2.1000000000000001E-13
DataValue, 2.2, -1, -9.7E-14, 1.69E-13, -8.0000000000000013E-14, 1.69E-13, 9.7E-14
DataValue, 2.3000000000000003, -1, -3.5E-14, -6.5E-14, -7.8000000000000008E-14, 6.5E-14, 3.5E-14
DataValue, 2.4, -1, -4.0000000000000006E-14, -3.0000000000000005E-14, -3.6000000000000004E-14, 3.0000000000000005E-14, 4.0000000000000006E-14
DataValue, 2.5, -1, 7.2000000000000009E-14, -9.9000000000000007E-14, -2.2E-14, 9.9000000000000007E-14, 7.2000000000000009E-14
DataValue, 2.6, -1, -2.4000000000000002E-14, -2.4000000000000004E-13, -5.9E-14, 2.4000000000000004E-13, 2.4000000000000002E-14
DataValue, 2.7, -1, 4.9000000000000006E-14, -1.0400000000000001E-13, -2.4000000000000002E-14, 1.0400000000000001E-13, 4.9000000000000006E-14
DataValue, 2.8000000000000003, -1, 1.1000000000000001E-13, 9.0000000000000011E-15, -5.4000000000000003E-14, 9.0000000000000011E-15, 1.1000000000000001E-13
DataValue, 2.9, -1, -2.6000000000000003E-14, -3.0000000000000003E-13, -8.8E-14, 3.0000000000000003E-13, 2.6000000000000003E-14
DataValue, 3, -1, -2.06E-13, 6.0000000000000009E-14, -6.8E-14, 6.0000000000000009E-14, 2.06E-13
DataValue, 3.1, -1, 1.83E-13, -5.3E-14, -1.3200000000000002E-13, 5.3E-14, 1.83E-13
DataValue, 3.2, -1, -1.06E-13, -1.22E-13, -1.1100000000000001E-13, 1.22E-13, 1.06E-13
DataValue, 3.3000000000000003, -1, -3.1E-14, 1E-13, -3.0000000000000005E-14, 1E-13, 3.1E-14
DataValue, 3.4, -1, -1.54E-13, -1.3300000000000001E-13, -1.2700000000000001E-13, 1.3300000000000001E-13, 1.54E-13
DataValue, 3.5, -1, 4E-15, 1.16E-13, -7.1E-14, 1.16E-13, 4E-15
DataValue, 3.6, -1, 1.0700000000000001E-13, 9.3000000000000008E-14, -9.2000000000000012E-14, 9.3000000000000008E-14, 1.0700000000000001E-13
DataValue, 3.7, -1, -2.8E-14, -1.9600000000000002E-13, -1.25E-13, 1.9600000000000002E-13, 2.8E-14
DataValue, 3.8000000000000003, -1, -2.1900000000000003E-13, 6.8E-14, -6.7E-14, 6.8E-14, 2.1900000000000003E-13
DataValue, 3.9, -1, 9.8000000000000012E-14, -2.0200000000000002E-13, -7.8000000000000008E-14, 2.0200000000000002E-13, 9.8000000000000012E-14
DataValue, 4, -1, -5.8E-14, -1.8500000000000002E-13, -7.4E-14, 1.8500000000000002E-13, 5.8E-14
DataValue, 4.1, -1, -7E-15, 1.1000000000000001E-13, -8.4000000000000008E-14, 1.1000000000000001E-13, 7E-15
DataValue, 4.2, -1, -3.0000000000000002E-15, -2.69E-13, -1.35E-13, 2.69E-13, 3.0000000000000002E-15
DataValue, 4.3, -1, -2.73E-13, 9.7E-14, -7.5000000000000009E-14, 9.7E-14, 2.73E-13
DataValue, 4.4, -1, -4.7E-14, 1E-15, -1.3300000000000001E-13, 1E-15, 4.7E-14
DataValue, 4.5, -1, -5.700000000000001E-14, -2.71E-13, -1.4500000000000001E-13, 2.71E-13, 5.700000000000001E-14
DataValue, 4.6000000000000005, -1, -2.18E-13, 1.46E-13, -2.7000000000000002E-14, 1.46E-13, 2.18E-13
DataValue, 4.7, -1, -9.8000000000000012E-14, -1.9600000000000002E-13, -1.2100000000000002E-13, 1.9600000000000002E-13, 9.8000000000000012E-14
DataValue, 4.8, -1, -2.47E-13, 1.6E-14, -8.1000000000000008E-14, 1.6E-14, 2.47E-13
DataValue, 4.9, -1, 1.28E-13, 5.4000000000000003E-14, -9.4E-14, 5.4000000000000003E-14, 1.28E-13
DataValue, 5, -1, 7.3E-14, -1.2700000000000001E-13, -7.4E-14, 1.2700000000000001E-13, 7.3E-14
DataValue, 5.1000000000000005, -1, -1.4400000000000002E-13, 7E-14, -4.6000000000000006E-14, 7E-14, 1.4400000000000002E-13
DataValue, 5.2, -1, 1.6100000000000002E-13, -6.3000000000000009E-14, -9.6000000000000007E-14, 6.3000000000000009E-14, 1.6100000000000002E-13
DataValue, 5.3, -1, -4.6000000000000006E-14, -1.9800000000000002E-13, -6.3000000000000009E-14, 1.9800000000000002E-13, 4.6000000000000006E-14
DataValue, 5.4, -1, 1.1E-14, 5.8E-14, -4.3000000000000006E-14, 5.8E-14, 1.1E-14
DataValue, 5.5, -1, -5.3E-14, -7.4E-14, -7.1E-14, 7.4E-14, 5.3E-14
DataValue, 5.6000000000000005, -1, -2.1500000000000002E-13, -6.7E-14, -5.700000000000001E-14, 6.7E-14, 2.1500000000000002E-13
DataValue, 5.7, -1, 4.6000000000000006E-14, 5.3E-14, -9.4E-14, 5.3E-14, 4.6000000000000006E-14
DataValue, 5.8, -1, -3.5E-14, -1.6600000000000003E-13, -9.3000000000000008E-14, 1.6600000000000003E-13, 3.5E-14
DataValue, 5.9, -1, -1.87E-13, 6.2E-14, -7.7E-14, 6.2E-14, 1.87E-13
DataValue, 6, -1, -3.9000000000000004E-14, -1.35E-13, -1.24E-13, 1.35E-13, 3.9000000000000004E-14
DataValue, 6.1000000000000005, -1, 3.5E-14, -8.3000000000000012E-14, -9.9000000000000007E-14, 8.3000000000000012E-14, 3.5E-14
DataValue, 6.2, -1, 2.0000000000000003E-14, 2.1900000000000003E-13, -8.0000000000000013E-14, 2.1900000000000003E-13, 2.0000000000000003E-14
DataValue, 6.3, -1, -5.8E-14, -2.2600000000000002E-13, -1.0400000000000001E-13, 2.2600000000000002E-13, 5.8E-14
DataValue, 6.4, -1, -1.0400000000000001E-13, 3.4E-14, -6.8E-14, 3.4E-14, 1.0400000000000001E-13
DataValue, 6.5, -1, -4.1E-14, 3.5E-14, -8.1000000000000008E-14, 3.5E-14, 4.1E-14
DataValue, 6.6000000000000005, -1, 1.23E-13, -3.07E-13, -1.58E-13, 3.07E-13, 1.23E-13
DataValue, 6.7, -1, -1.69E-13, 8.7000000000000008E-14, -9.4E-14, 8.7000000000000008E-14, 1.69E-13
DataValue, 6.8, -1, -6.0000000000000005E-15, -4E-15, -1.06E-13, 4E-15, 6.0000000000000005E-15
DataValue, 6.9, -1, -1.47E-13, -2.49E-13, -1.3100000000000002E-13, 2.49E-13, 1.47E-13
DataValue, 7, -1, -9.3000000000000008E-14, 1.3300000000000001E-13, -1.2700000000000001E-13, 1.3300000000000001E-13, 9.3000000000000008E-14
DataValue, 0, 0, -2.48E-13, -7.9E-14, -1.3200000000000002E-13, 7.9E-14, 2.48E-13
DataValue, 0.1, 0, 7.404E-12, -2.6E-13, -7.849E-12, 2.6E-13, 7.404E-12
DataValue, 0.2, 0, 8.239E-12, 1.75E-13, -8.608E-12, 1.75E-13, 8.239E-12
DataValue, 0.3, 0, 8.485E-12, -3.8E-14, -8.546E-12, 3.8E-14, 8.485E-12
DataValue, 0.4, 0, 8.233E-12, -6.1E-14, -8.556E-12, 6.1E-14, 8.233E-12
DataValue, 0.5, 0, 8.388E-12, 1.23E-13, -8.4420000000000014E-12, 1.23E-13, 8.388E-12
DataValue, 0.6, 0, 8.056E-12, -1.2000000000000002E-13, -8.4580000000000013E-12, 1.2000000000000002E-13, 8.056E-12
DataValue, 0.70000000000000007, 0, 8.480000000000001E-12, 5E-14, -8.53E-12, 5E-14, 8.480000000000001E-12
DataValue, 0.8, 0, 8.465E-12, 3.0000000000000005E-14, -8.452E-12, 3.0000000000000005E-14, 8.465E-12
DataValue, 0.9, 0, 8.263E-12, -1.3300000000000001E-13, -8.5960000000000009E-12, 1.3300000000000001E-13, 8.263E-12
DataValue, 1, 0, 8.0990000000000009E-12, 1.71E-13, -8.3990000000000009E-12, 1.71E-13, 8.0990000000000009E-12
DataValue, 1.1, 0, 8.254000000000001E-12, 6.6000000000000009E-14, -8.238000000000001E-12, 6.6000000000000009E-14, 8.254000000000001E-12
DataValue, 1.2, 0, 8.112000000000001E-12, -4.9000000000000006E-14, -8.3480000000000012E-12, 4.9000000000000006E-14, 8.112000000000001E-12
DataValue, 1.3, 0, 7.941000000000001E-12, 1.6600000000000003E-13, -8.2710000000000014E-12, 1.6600000000000003E-13, 7.941000000000001E-12
DataValue, 1.4000000000000001, 0, 8.363E-12, 9.2000000000000012E-14, -8.5480000000000011E-12, 9.2000000000000012E-14, 8.363E-12
DataValue, 1.5, 0, 8.033E-12, -1.9600000000000002E-13, -8.473E-12, 1.9600000000000002E-13, 8.033E-12
DataValue, 1.6, 0, 8.043E-12, 9.7E-14, -8.5120000000000009E-12, 9.7E-14, 8.043E-12
DataValue, 1.7000000000000002, 0, 8.189E-12, -9.0000000000000008E-14, -8.489E-12, 9.0000000000000008E-14, 8.189E-12
DataValue, 1.8, 0, 7.8480000000000013E-12, -1.47E-13, -8.21E-12, 1.47E-13, 7.8480000000000013E-12
DataValue, 1.9000000000000001, 0, 7.829E-12, 1.4E-14, -8.2420000000000014E-12, 1.4E-14, 7.829E-12
DataValue, 2, 0, 7.879E-12, -2.71E-13, -8.472E-12, 2.71E-13, 7.879E-12
DataValue, 2.1, 0, 7.768E-12, 3.0000000000000005E-14, -8.3320000000000013E-12, 3.0000000000000005E-14, 7.768E-12
DataValue, 2.2, 0, 7.8480000000000013E-12, -1.81E-13, -8.096000000000001E-12, 1.81E-13, 7.8480000000000013E-12
DataValue, 2.3000000000000003, 0, 7.807E-12, -2.6400000000000004E-13, -8.146E-12, 2.6400000000000004E-13, 7.807E-12
DataValue, 2.4, 0, 7.813E-12, -4.2000000000000004E-14, -8.213E-12, 4.2000000000000004E-14, 7.813E-12
DataValue, 2.5, 0, 7.674E-12, -2.0700000000000003E-13, -7.9900000000000013E-12, 2.0700000000000003E-13, 7.674E-12
DataValue, 2.6, 0, 7.723E-12, -2.0400000000000001E-13, -8.185E-12, 2.0400000000000001E-13, 7.723E-12
DataValue, 2.7, 0, 7.8150000000000009E-12, -1.3200000000000002E-13, -8.012000000000001E-12, 1.3200000000000002E-13, 7.8150000000000009E-12
DataValue, 2.8000000000000003, 0, 7.708E-12, -2.7700000000000003E-13, -7.989E-12, 2.7700000000000003E-13, 7.708E-12
DataValue, 2.9, 0, 7.753E-12, 1.5000000000000002E-14, -8.0670000000000011E-12, 1.5000000000000002E-14, 7.753E-12
DataValue, 3, 0, 7.705E-12, -1.18E-13, -8.072E-12, 1.18E-13, 7.705E-12
DataValue, 3.1, 0, 7.694E-12, -1.4400000000000002E-13, -8.254000000000001E-12, 1.4400000000000002E-13, 7.694E-12
DataValue, 3.2, 0, 7.912000000000001E-12, 9.1E-14, -8.165E-12, 9.1E-14, 7.912000000000001E-12
DataValue, 3.3000000000000003, 0, 7.928000000000001E-12, -3.2500000000000003E-13, -8.2870000000000013E-12, 3.2500000000000003E-13, 7.928000000000001E-12
DataValue, 3.4, 0, 7.8440000000000009E-12, 4E-15, -8.111E-12, 4E-15, 7.8440000000000009E-12
DataValue, 3.5, 0, 7.904E-12, -2.5E-14, -8.3610000000000012E-12, 2.5E-14, 7.904E-12
DataValue, 3.6, 0, 8.043E-12, -1.34E-13, -8.201E-12, 1.34E-13, 8.043E-12
DataValue, 3.7, 0, 7.862E-12, 5.2000000000000006E-14, -8.367000000000001E-12, 5.2000000000000006E-14, 7.862E-12
DataValue, 3.8000000000000003, 0, 7.937E-12, -1.5600000000000002E-13, -8.4160000000000013E-12, 1.5600000000000002E-13, 7.937E-12
DataValue, 3.9, 0, 8.034E-12, 1.0200000000000001E-13, -8.365E-12, 1.0200000000000001E-13, 8.034E-12
DataValue, 4, 0, 8.111E-12, 1.8400000000000002E-13, -8.439E-12, 1.8400000000000002E-13, 8.111E-12
DataValue, 4.1, 0, 7.82E-12, -2.6400000000000004E-13, -8.5900000000000012E-12, 2.6400000000000004E-13, 7.82E-12
DataValue, 4.2, 0, 7.6610000000000014E-12, -1.7200000000000002E-13, -8.2220000000000011E-12, 1.7200000000000002E-13, 7.6610000000000014E-12
DataValue, 4.3, 0, 7.988E-12, 7.3E-14, -8.2580000000000014E-12, 7.3E-14, 7.988E-12
DataValue, 4.4, 0, 7.7190000000000013E-12, -4.4100000000000004E-13, -8.3640000000000011E-12, 4.4100000000000004E-13, 7.7190000000000013E-12
DataValue, 4.5, 0, 7.8510000000000012E-12, -3.1100000000000004E-13, -8.017E-12, 3.1100000000000004E-13, 7.8510000000000012E-12
DataValue, 4.6000000000000005, 0, 7.9440000000000009E-12, -5.0100000000000009E-13, -8.069E-12, 5.0100000000000009E-13, 7.9440000000000009E-12
DataValue, 4.7, 0, 8.414E-12, -5.1000000000000004E-14, -8.2570000000000009E-12, 5.1000000000000004E-14, 8.414E-12
DataValue, 4.8, 0, 8.097E-12, 2.17E-13, -8.2420000000000014E-12, 2.17E-13, 8.097E-12
DataValue, 4.9, 0, 8.101E-12, -3.17E-13, -8.4220000000000011E-12, 3.17E-13, 8.101E-12
DataValue, 5, 0, 8.001E-12, -3.7E-14, -8.202E-12, 3.7E-14, 8.001E-12
DataValue, 5.1000000000000005, 0, 7.297E-12, -5.21E-13, -8.292E-12, 5.21E-13, 7.297E-12
DataValue, 5.2, 0, 7.2960000000000012E-12, -4.0800000000000003E-13, -8.2710000000000014E-12, 4.0800000000000003E-13, 7.2960000000000012E-12
DataValue, 5.3, 0, 7.8190000000000013E-12, 1.64E-13, -8.268E-12, 1.64E-13, 7.8190000000000013E-12
DataValue, 5.4, 0, 8.4130000000000014E-12, -7.8000000000000008E-14, -8.3220000000000011E-12, 7.8000000000000008E-14, 8.4130000000000014E-12
DataValue, 5.5, 0, 8.5350000000000011E-12, 9.5800000000000016E-13, -8.396000000000001E-12, 9.5800000000000016E-13, 8.5350000000000011E-12
DataValue, 5.6000000000000005, 0, 7.8930000000000012E-12, -3.2950000000000004E-12, -7.5220000000000013E-12, 3.2950000000000004E-12, 7.8930000000000012E-12
DataValue, 5.7, 0, 8.983E-12, -3.2360000000000003E-12, -7.713E-12, 3.2360000000000003E-12, 8.983E-12
