
SetupTitle, TFT lin RollOut
PrimitiveTest, I/V Sweep
TestParameter, Context.MainFrame, 4155C
TestParameter, Channel.UnitType, SMU, SMU, SMU
TestParameter, Channel.Unit, SMU1:MP, SMU2:MP, SMU3:MP
TestParameter, Channel.IName, ID, IG, IS
TestParameter, Channel.VName, VD, VG, VS
TestParameter, Channel.Mode, V, V, COMMON
TestParameter, Channel.Func, CONST, VAR1, CONST
TestParameter, Channel.Index, 
TestParameter, Channel.Time, 
TestParameter, Measurement.Port.Unit, SMU1:MP, SMU2:MP, SMU3:MP
TestParameter, Measurement.Port.SeriesResistor, NONE, NONE, NONE
TestParameter, Measurement.Port.Filter, ON, ON, ON
TestParameter, Measurement.Primary.Locus, Single
TestParameter, Measurement.Primary.Scale, LINEAR
TestParameter, Measurement.Primary.Start, -4
TestParameter, Measurement.Primary.Stop, 7
TestParameter, Measurement.Primary.Step, 0.1
TestParameter, Measurement.Primary.Compliance, 1E-09
TestParameter, Measurement.Primary.PowerCompliance, 0
TestParameter, Measurement.Aborting.Condition, CONTINUE AT ANY
TestParameter, Measurement.PostOutput.Value, START
TestParameter, Measurement.PostOutput.Retention, OFF
TestParameter, Measurement.Bias.Source, 0.1, -4, 0
TestParameter, Measurement.Bias.Compliance, 0.0001, 1E-09, 0.1
TestParameter, Measurement.Monitor.Unit, SMU1:MP, SMU2:MP, SMU3:MP
TestParameter, Measurement.Monitor.Adc, HR ADC, HR ADC, HR ADC
TestParameter, Measurement.Monitor.RangingMode, LIMITED, LIMITED, LIMITED
TestParameter, Measurement.Monitor.RangeBoundary, 1nA, 1nA, 1nA
TestParameter, Measurement.Monitor.RangeRating, BY FULL RANGE, BY FULL RANGE, BY FULL RANGE
TestParameter, Measurement.Monitor.RangeRatingCoeff, 50, 50, 50
TestParameter, Measurement.Timing.Hold, 0
TestParameter, Measurement.Timing.Delay, 0
TestParameter, Measurement.Adc.HighResolution.AutoZero, OFF
TestParameter, Measurement.Adc.HighResolution.Mode, AUTO
TestParameter, Measurement.Adc.HighResolution.Coeff, 6
TestParameter, Measurement.Ag16440ASelector.SemiconductorRelay.Channel1, DEFAULT
TestParameter, Measurement.Ag16440ASelector.SemiconductorRelay.Channel3, DEFAULT
TestParameter, Function.Analysis.Name, dIddVg, absIg, absId
TestParameter, Function.Analysis.Unit, S, A, A
TestParameter, Function.Analysis.Definition, delta(ID)/delta(VG), abs(IG), abs(ID)
TestParameter, Output.Graph.Enabled, true
TestParameter, Output.Graph.AutoScaling, false
TestParameter, Output.Graph.XAxis.Data, VG
TestParameter, Output.Graph.XAxis.Scale, Linear
TestParameter, Output.Graph.XAxis.Left, -2
TestParameter, Output.Graph.XAxis.Right, 6
TestParameter, Output.Graph.XAxis.RunTimeAutoScale, true
TestParameter, Output.Graph.YAxis.Data, absId, absIg
TestParameter, Output.Graph.YAxis.Scale, Log, Log
TestParameter, Output.Graph.YAxis.Bottom, 0, 0
TestParameter, Output.Graph.YAxis.Top, 1, 1
TestParameter, Output.Graph.YAxis.Group, , 
TestParameter, Output.Graph.YAxis.RunTimeAutoScale, true, true
TestParameter, Output.List.Data, VG, IG, ID, IS, VD, dIddVg, absIg, absId
TestParameter, AutoAnalysis.Interpolation, false
TestParameter, AutoAnalysis.Var2StepCount, 1
TestParameter, AutoAnalysis.Var2StepScript, 
TestParameter, AutoAnalysis.Line1.Enabled, false
TestParameter, AutoAnalysis.Line1.Type, 1
TestParameter, AutoAnalysis.Line1.Fix, True
TestParameter, AutoAnalysis.Line1.YAxis, 0
TestParameter, AutoAnalysis.Line1.Point1.Type, 0
TestParameter, AutoAnalysis.Line1.Point1.XY.X, 
TestParameter, AutoAnalysis.Line1.Point1.XY.Y, 
TestParameter, AutoAnalysis.Line1.Point1.Data.Var, 
TestParameter, AutoAnalysis.Line1.Point1.Data.Condition, 
TestParameter, AutoAnalysis.Line1.Point1.Data.Start, false
TestParameter, AutoAnalysis.Line1.Point1.Data.StartVar, 
TestParameter, AutoAnalysis.Line1.Point1.Data.StartCondition, 
TestParameter, AutoAnalysis.Line1.Point2.Type, 0
TestParameter, AutoAnalysis.Line1.Point2.XY.X, 
TestParameter, AutoAnalysis.Line1.Point2.XY.Y, 
TestParameter, AutoAnalysis.Line1.Point2.Data.Var, 
TestParameter, AutoAnalysis.Line1.Point2.Data.Condition, 
TestParameter, AutoAnalysis.Line1.Point2.Data.Start, false
TestParameter, AutoAnalysis.Line1.Point2.Data.StartVar, 
TestParameter, AutoAnalysis.Line1.Point2.Data.StartCondition, 
TestParameter, AutoAnalysis.Line1.GradientExpr, 0
TestParameter, AutoAnalysis.Line2.Enabled, false
TestParameter, AutoAnalysis.Line2.Type, 1
TestParameter, AutoAnalysis.Line2.Fix, True
TestParameter, AutoAnalysis.Line2.YAxis, 0
TestParameter, AutoAnalysis.Line2.Point1.Type, 0
TestParameter, AutoAnalysis.Line2.Point1.XY.X, 
TestParameter, AutoAnalysis.Line2.Point1.XY.Y, 
TestParameter, AutoAnalysis.Line2.Point1.Data.Var, 
TestParameter, AutoAnalysis.Line2.Point1.Data.Condition, 
TestParameter, AutoAnalysis.Line2.Point1.Data.Start, false
TestParameter, AutoAnalysis.Line2.Point1.Data.StartVar, 
TestParameter, AutoAnalysis.Line2.Point1.Data.StartCondition, 
TestParameter, AutoAnalysis.Line2.Point2.Type, 0
TestParameter, AutoAnalysis.Line2.Point2.XY.X, 
TestParameter, AutoAnalysis.Line2.Point2.XY.Y, 
TestParameter, AutoAnalysis.Line2.Point2.Data.Var, 
TestParameter, AutoAnalysis.Line2.Point2.Data.Condition, 
TestParameter, AutoAnalysis.Line2.Point2.Data.Start, false
TestParameter, AutoAnalysis.Line2.Point2.Data.StartVar, 
TestParameter, AutoAnalysis.Line2.Point2.Data.StartCondition, 
TestParameter, AutoAnalysis.Line2.GradientExpr, 0
TestParameter, AutoAnalysis.Marker.Enabled, false
TestParameter, AutoAnalysis.Marker.Data.Var, 
TestParameter, AutoAnalysis.Marker.Data.Condition, 
TestParameter, AutoAnalysis.Marker.Data.Start, false
TestParameter, AutoAnalysis.Marker.Data.StartVar, 
TestParameter, AutoAnalysis.Marker.Data.StartCondition, 
MetaData, TestRecord.EntryPoint, true
MetaData, TestRecord.RecordTime, 03/10/2020 10:08:30
MetaData, TestRecord.TestTarget, P1G3_50-20
MetaData, TestRecord.IterationIndex, 1
MetaData, TestRecord.Preservation, true
MetaData, TestRecord.Flag, 
MetaData, TestRecord.Remarks, linear
MetaData, TestRecord.LinkKey, 63b76f19-c00e-4c4f-a91f-28dd6a081b1e
MetaData, TestRecord.Parameters, 
Dimension1, 111, 111, 111, 111, 111, 111, 111, 111
Dimension2, 1, 1, 1, 1, 1, 1, 1, 1
DataName, VG, VD, ID, IG, IS, dIddVg, absIg, absId
DataValue, -4, 0.1, -2.1400000000000002E-13, -1.12E-12, 3.41E-13, 9.6199999999999933E-12, 1.12E-12, 2.1400000000000002E-13
DataValue, -3.9, 0.1, 7.48E-13, 4.3200000000000003E-13, 3.65E-13, 3.450000000000005E-13, 4.3200000000000003E-13, 7.48E-13
DataValue, -3.8000000000000003, 0.1, -1.4500000000000001E-13, -2.33E-13, 1.6000000000000003E-13, -6.395000000000009E-12, 2.33E-13, 1.4500000000000001E-13
DataValue, -3.7, 0.1, -5.3100000000000006E-13, -3.87E-13, -2.47E-13, -1.0849999999999991E-12, 3.87E-13, 5.3100000000000006E-13
DataValue, -3.6, 0.1, -3.62E-13, 1.58E-13, -4.4000000000000004E-13, 1.9199999999999987E-12, 1.58E-13, 3.62E-13
DataValue, -3.5, 0.1, -1.47E-13, 2.0300000000000002E-13, -3.97E-13, 5.2999999999999956E-13, 2.0300000000000002E-13, 1.47E-13
DataValue, -3.4, 0.1, -2.56E-13, 4.1800000000000004E-13, -2.11E-13, -1.6500000000000023E-12, 4.1800000000000004E-13, 2.56E-13
DataValue, -3.3000000000000003, 0.1, -4.77E-13, 3.2000000000000005E-13, -1.9700000000000002E-13, -6.3500000000000093E-13, 3.2000000000000005E-13, 4.77E-13
DataValue, -3.2, 0.1, -3.8300000000000003E-13, 9.0000000000000008E-14, -3.08E-13, 1.1449999999999989E-12, 9.0000000000000008E-14, 3.8300000000000003E-13
DataValue, -3.1, 0.1, -2.48E-13, 3.5800000000000004E-13, -2.59E-13, 2.2549999999999984E-12, 3.5800000000000004E-13, 2.48E-13
DataValue, -3, 0.1, 6.8E-14, 1.4300000000000002E-13, -4.8400000000000006E-13, 1.5099999999999988E-12, 1.4300000000000002E-13, 6.8E-14
DataValue, -2.9, 0.1, 5.4000000000000003E-14, -1.89E-13, -1.7300000000000002E-13, -7.52500000000001E-12, 1.89E-13, 5.4000000000000003E-14
DataValue, -2.8000000000000003, 0.1, -1.437E-12, -5.22E-13, 4.0500000000000004E-13, -3.7150000000000051E-12, 5.22E-13, 1.437E-12
DataValue, -2.7, 0.1, -6.8900000000000009E-13, -2.323E-12, 1.5500000000000002E-13, 6.8499999999999936E-12, 2.323E-12, 6.8900000000000009E-13
DataValue, -2.6, 0.1, -6.7E-14, -1.241E-12, 1.25E-13, 1.2064999999999991E-11, 1.241E-12, 6.7E-14
DataValue, -2.5, 0.1, 1.7240000000000001E-12, -2.9610000000000004E-12, -9.99E-13, -2.1699999999999982E-12, 2.9610000000000004E-12, 1.7240000000000001E-12
DataValue, -2.4, 0.1, -5.0100000000000009E-13, 1.3630000000000002E-12, 5.2400000000000009E-13, -6.1200000000000087E-12, 1.3630000000000002E-12, 5.0100000000000009E-13
DataValue, -2.3000000000000003, 0.1, 5E-13, 3.38E-13, -1.28E-13, 3.3055000000000048E-11, 3.38E-13, 5E-13
DataValue, -2.2, 0.1, 6.1100000000000004E-12, -2.0250000000000004E-12, -1.2400000000000002E-12, -1.0604999999999991E-11, 2.0250000000000004E-12, 6.1100000000000004E-12
DataValue, -2.1, 0.1, -1.621E-12, 5.34E-13, 2.0000000000000003E-14, -2.657499999999998E-11, 5.34E-13, 1.621E-12
DataValue, -2, 0.1, 7.95E-13, -5.69E-13, -4.7E-14, 4.7200000000000009E-12, 5.69E-13, 7.95E-13
DataValue, -1.9000000000000001, 0.1, -6.77E-13, -9.82E-13, 2.2E-14, -1.1155000000000002E-11, 9.82E-13, 6.77E-13
DataValue, -1.8, 0.1, -1.4360000000000001E-12, -7.73E-13, -5.0800000000000006E-13, -4.6000000000000016E-13, 7.73E-13, 1.4360000000000001E-12
DataValue, -1.7000000000000002, 0.1, -7.6900000000000006E-13, 1.124E-12, 5.1000000000000004E-14, 1.3260000000000005E-11, 1.124E-12, 7.6900000000000006E-13
DataValue, -1.6, 0.1, 1.216E-12, -5.0000000000000008E-15, -3.0000000000000002E-15, 3.0549999999999974E-12, 5.0000000000000008E-15, 1.216E-12
DataValue, -1.5, 0.1, -1.58E-13, 3.16E-13, -2E-13, -8.4850000000000019E-12, 3.16E-13, 1.58E-13
DataValue, -1.4000000000000001, 0.1, -4.8100000000000007E-13, 4.86E-13, -3.3E-13, 8.9500000000000033E-13, 4.86E-13, 4.8100000000000007E-13
DataValue, -1.3, 0.1, 2.1000000000000002E-14, 1E-15, -2.95E-13, -4.2249999999999962E-12, 1E-15, 2.1000000000000002E-14
DataValue, -1.2, 0.1, -1.326E-12, 7.3E-14, -1.87E-13, -3.1000000000000009E-12, 7.3E-14, 1.326E-12
DataValue, -1.1, 0.1, -5.9900000000000007E-13, -6.9800000000000006E-13, -1.0800000000000001E-13, 2.0599999999999997E-12, 6.9800000000000006E-13, 5.9900000000000007E-13
DataValue, -1, 0.1, -9.1400000000000014E-13, -2.9E-14, -3.1300000000000003E-13, -3.8499999999999972E-13, 2.9E-14, 9.1400000000000014E-13
DataValue, -0.9, 0.1, -6.76E-13, 5.0300000000000008E-13, -3.27E-13, 2.270000000000001E-12, 5.0300000000000008E-13, 6.76E-13
DataValue, -0.8, 0.1, -4.6000000000000006E-13, 4.3000000000000006E-14, -1.83E-13, 2.395000000000001E-12, 4.3000000000000006E-14, 4.6000000000000006E-13
DataValue, -0.70000000000000007, 0.1, -1.9700000000000002E-13, 1.64E-13, -7.8000000000000008E-14, -8.749999999999995E-13, 1.64E-13, 1.9700000000000002E-13
DataValue, -0.6, 0.1, -6.35E-13, -5.0800000000000006E-13, -5.91E-13, -1.3459999999999996E-11, 5.0800000000000006E-13, 6.35E-13
DataValue, -0.5, 0.1, -2.8890000000000003E-12, 3.2680000000000002E-12, -4.3000000000000004E-13, 7.7500000000000023E-12, 3.2680000000000002E-12, 2.8890000000000003E-12
DataValue, -0.4, 0.1, 9.15E-13, 3.568E-12, -7.08E-13, 1.7565000000000003E-11, 3.568E-12, 9.15E-13
DataValue, -0.3, 0.1, 6.2400000000000007E-13, 2.807E-12, -2.5200000000000004E-13, -2.025E-12, 2.807E-12, 6.2400000000000007E-13
DataValue, -0.2, 0.1, 5.1E-13, 1.437E-12, -9.0900000000000006E-13, 3.0680000000000004E-11, 1.437E-12, 5.1E-13
DataValue, -0.1, 0.1, 6.76E-12, 1.404E-12, -6.4590000000000006E-12, 3.3577E-10, 1.404E-12, 6.76E-12
DataValue, 0, 0.1, 6.7664000000000011E-11, -5E-14, -6.6306E-11, 2.70425E-09, 5E-14, 6.7664000000000011E-11
DataValue, 0.1, 0.1, 5.4761E-10, 1.055E-12, -5.1844800000000009E-10, 1.2439529999999998E-08, 1.055E-12, 5.4761E-10
DataValue, 0.2, 0.1, 2.55557E-09, -1.1190000000000002E-12, -2.45084E-09, 3.5200250000000004E-08, 1.1190000000000002E-12, 2.55557E-09
DataValue, 0.3, 0.1, 7.58766E-09, -1.299E-12, -7.34624E-09, 6.2550149999999989E-08, 1.299E-12, 7.58766E-09
DataValue, 0.4, 0.1, 1.50656E-08, 2.2500000000000003E-13, -1.4726899999999998E-08, 8.6874699999999973E-08, 2.2500000000000003E-13, 1.50656E-08
DataValue, 0.5, 0.1, 2.4962599999999998E-08, 1.429E-12, -2.4583899999999998E-08, 1.06924E-07, 1.429E-12, 2.4962599999999998E-08
DataValue, 0.6, 0.1, 3.6450399999999994E-08, -5.4800000000000009E-13, -3.6030799999999996E-08, 1.2128699999999994E-07, 5.4800000000000009E-13, 3.6450399999999994E-08
DataValue, 0.70000000000000007, 0.1, 4.9219999999999993E-08, -5.64E-13, -4.8751199999999995E-08, 1.3278999999999999E-07, 5.64E-13, 4.9219999999999993E-08
DataValue, 0.8, 0.1, 6.30084E-08, 1.2600000000000002E-13, -6.2573499999999988E-08, 1.4263650000000002E-07, 1.2600000000000002E-13, 6.30084E-08
DataValue, 0.9, 0.1, 7.7747299999999991E-08, -2.7000000000000002E-14, -7.7365399999999987E-08, 1.514985E-07, 2.7000000000000002E-14, 7.7747299999999991E-08
DataValue, 1, 0.1, 9.33081E-08, -5.3200000000000006E-13, -9.29057E-08, 1.5902799999999991E-07, 5.3200000000000006E-13, 9.33081E-08
DataValue, 1.1, 0.1, 1.0955289999999998E-07, 1.103E-12, -1.0923159999999999E-07, 1.6479950000000006E-07, 1.103E-12, 1.0955289999999998E-07
DataValue, 1.2, 0.1, 1.26268E-07, 1.03E-12, -1.25914E-07, 1.7113550000000015E-07, 1.03E-12, 1.26268E-07
DataValue, 1.3, 0.1, 1.4378E-07, -9.55E-13, -1.43559E-07, 1.7862499999999976E-07, 9.55E-13, 1.4378E-07
DataValue, 1.4000000000000001, 0.1, 1.61993E-07, -1.6100000000000002E-13, -1.61803E-07, 1.8462500000000003E-07, 1.6100000000000002E-13, 1.61993E-07
DataValue, 1.5, 0.1, 1.80705E-07, 5.4000000000000003E-14, -1.80588E-07, 1.9011500000000016E-07, 5.4000000000000003E-14, 1.80705E-07
DataValue, 1.6, 0.1, 2.00016E-07, 2.6400000000000004E-13, -1.99886E-07, 1.9501499999999979E-07, 2.6400000000000004E-13, 2.00016E-07
DataValue, 1.7000000000000002, 0.1, 2.19708E-07, -3.1E-14, -2.19644E-07, 1.9931E-07, 3.1E-14, 2.19708E-07
DataValue, 1.8, 0.1, 2.39878E-07, -6.76E-13, -2.39832E-07, 2.0397E-07, 6.76E-13, 2.39878E-07
DataValue, 1.9000000000000001, 0.1, 2.60502E-07, 1.7410000000000002E-12, -2.60508E-07, 2.0832500000000003E-07, 1.7410000000000002E-12, 2.60502E-07
DataValue, 2, 0.1, 2.81543E-07, -9.49E-13, -2.8159199999999997E-07, 2.1241500000000017E-07, 9.49E-13, 2.81543E-07
DataValue, 2.1, 0.1, 3.02985E-07, 1.063E-12, -3.03083E-07, 2.1655999999999974E-07, 1.063E-12, 3.02985E-07
DataValue, 2.2, 0.1, 3.24855E-07, -1.0350000000000001E-12, -3.25001E-07, 2.2035499999999967E-07, 1.0350000000000001E-12, 3.24855E-07
DataValue, 2.3000000000000003, 0.1, 3.47056E-07, -3.19E-13, -3.47208E-07, 2.2363500000000043E-07, 3.19E-13, 3.47056E-07
DataValue, 2.4, 0.1, 3.69582E-07, 8.4000000000000006E-13, -3.69763E-07, 2.2703000000000044E-07, 8.4000000000000006E-13, 3.69582E-07
DataValue, 2.5, 0.1, 3.92462E-07, -6.6800000000000008E-13, -3.9274E-07, 2.3082499999999961E-07, 6.6800000000000008E-13, 3.92462E-07
DataValue, 2.6, 0.1, 4.1574699999999997E-07, -1.439E-12, -4.15994E-07, 2.3417999999999957E-07, 1.439E-12, 4.1574699999999997E-07
DataValue, 2.7, 0.1, 4.3929799999999997E-07, 3.5170000000000005E-12, -4.39606E-07, 2.3718499999999994E-07, 3.5170000000000005E-12, 4.3929799999999997E-07
DataValue, 2.8000000000000003, 0.1, 4.63184E-07, -2.807E-12, -4.6348399999999997E-07, 2.4018000000000029E-07, 2.807E-12, 4.63184E-07
DataValue, 2.9, 0.1, 4.87334E-07, 2.0280000000000002E-12, -4.87724E-07, 2.4343500000000014E-07, 2.0280000000000002E-12, 4.87334E-07
DataValue, 3, 0.1, 5.11871E-07, -1.0870000000000001E-12, -5.12267E-07, 2.4661000000000017E-07, 1.0870000000000001E-12, 5.11871E-07
DataValue, 3.1, 0.1, 5.36656E-07, -3.4E-13, -5.37122E-07, 2.4940500000000003E-07, 3.4E-13, 5.36656E-07
DataValue, 3.2, 0.1, 5.61752E-07, 9.0900000000000006E-13, -5.62226E-07, 2.5253999999999975E-07, 9.0900000000000006E-13, 5.61752E-07
DataValue, 3.3000000000000003, 0.1, 5.87164E-07, -6.12E-13, -5.87589E-07, 2.5495500000000023E-07, 6.12E-13, 5.87164E-07
DataValue, 3.4, 0.1, 6.12743E-07, 4.11E-13, -6.13319E-07, 2.5749000000000033E-07, 4.11E-13, 6.12743E-07
DataValue, 3.5, 0.1, 6.38662E-07, 6.35E-13, -6.39225E-07, 2.6067499999999984E-07, 6.35E-13, 6.38662E-07
DataValue, 3.6, 0.1, 6.64878E-07, -1.2230000000000001E-12, -6.65489E-07, 2.6351499999999935E-07, 1.2230000000000001E-12, 6.64878E-07
DataValue, 3.7, 0.1, 6.9136499999999994E-07, -4.87E-13, -6.9192E-07, 2.6571999999999987E-07, 4.87E-13, 6.9136499999999994E-07
DataValue, 3.8000000000000003, 0.1, 7.18022E-07, 1.5660000000000002E-12, -7.18726E-07, 2.6820000000000061E-07, 1.5660000000000002E-12, 7.18022E-07
DataValue, 3.9, 0.1, 7.45005E-07, 1.519E-12, -7.4572799999999994E-07, 2.7089000000000022E-07, 1.519E-12, 7.45005E-07
DataValue, 4, 0.1, 7.722E-07, 8.1700000000000005E-13, -7.72918E-07, 2.7308000000000033E-07, 8.1700000000000005E-13, 7.722E-07
DataValue, 4.1, 0.1, 7.99621E-07, 6.61E-13, -8.0032899999999994E-07, 2.753699999999999E-07, 6.61E-13, 7.99621E-07
DataValue, 4.2, 0.1, 8.27274E-07, -9.53E-13, -8.28063E-07, 2.7793999999999991E-07, 9.53E-13, 8.27274E-07
DataValue, 4.3, 0.1, 8.55209E-07, 4.74E-13, -8.5602699999999994E-07, 2.8057499999999959E-07, 4.74E-13, 8.55209E-07
DataValue, 4.4, 0.1, 8.83389E-07, 2.5E-13, -8.8423E-07, 2.8302999999999959E-07, 2.5E-13, 8.83389E-07
DataValue, 4.5, 0.1, 9.11815E-07, -5.5200000000000007E-13, -9.1265E-07, 2.8504499999999963E-07, 5.5200000000000007E-13, 9.11815E-07
DataValue, 4.6000000000000005, 0.1, 9.40398E-07, 8.8200000000000008E-13, -9.41262E-07, 2.8697499999999996E-07, 8.8200000000000008E-13, 9.40398E-07
DataValue, 4.7, 0.1, 9.6921E-07, 3.0000000000000005E-14, -9.70084E-07, 2.8916500000000133E-07, 3.0000000000000005E-14, 9.6921E-07
DataValue, 4.8, 0.1, 9.98231E-07, -1.3100000000000002E-13, -9.99126E-07, 2.8965000000000021E-07, 1.3100000000000002E-13, 9.98231E-07
DataValue, 4.9, 0.1, 1.0271400000000001E-06, 5.0100000000000009E-13, -1.02801E-06, 2.9114500000000019E-07, 5.0100000000000009E-13, 1.0271400000000001E-06
DataValue, 5, 0.1, 1.0564600000000001E-06, -4.01E-13, -1.05747E-06, 2.9469999999999985E-07, 4.01E-13, 1.0564600000000001E-06
DataValue, 5.1000000000000005, 0.1, 1.0860800000000002E-06, -1.71E-13, -1.0871000000000002E-06, 2.9664999999999968E-07, 1.71E-13, 1.0860800000000002E-06
DataValue, 5.2, 0.1, 1.1157900000000001E-06, 5.85E-13, -1.11684E-06, 2.9850000000000125E-07, 5.85E-13, 1.1157900000000001E-06
DataValue, 5.3, 0.1, 1.1457800000000002E-06, -2.9700000000000005E-13, -1.1468700000000002E-06, 3.0104999999999938E-07, 2.9700000000000005E-13, 1.1457800000000002E-06
DataValue, 5.4, 0.1, 1.176E-06, 4.23E-13, -1.17705E-06, 3.028499999999993E-07, 4.23E-13, 1.176E-06
DataValue, 5.5, 0.1, 1.20635E-06, 4.5800000000000007E-13, -1.20743E-06, 3.0424999999999983E-07, 4.5800000000000007E-13, 1.20635E-06
DataValue, 5.6000000000000005, 0.1, 1.23685E-06, -4.0500000000000004E-13, -1.2379600000000002E-06, 3.0604999999999975E-07, 4.0500000000000004E-13, 1.23685E-06
DataValue, 5.7, 0.1, 1.2675600000000001E-06, 3.3E-13, -1.2687500000000001E-06, 3.0800000000000096E-07, 3.3E-13, 1.2675600000000001E-06
DataValue, 5.8, 0.1, 1.29845E-06, -1.303E-12, -1.2996000000000002E-06, 3.0994999999999941E-07, 1.303E-12, 1.29845E-06
DataValue, 5.9, 0.1, 1.32955E-06, -2.9380000000000002E-12, -1.33057E-06, 3.1140000000000026E-07, 2.9380000000000002E-12, 1.32955E-06
DataValue, 6, 0.1, 1.3607300000000001E-06, 1.686E-12, -1.3619600000000002E-06, 3.1285000000000005E-07, 1.686E-12, 1.3607300000000001E-06
DataValue, 6.1000000000000005, 0.1, 1.3921200000000001E-06, 2.7090000000000003E-12, -1.3933400000000001E-06, 3.1515E-07, 2.7090000000000003E-12, 1.3921200000000001E-06
DataValue, 6.2, 0.1, 1.4237600000000002E-06, -9.000000000000001E-13, -1.4249500000000002E-06, 3.1635000000000169E-07, 9.000000000000001E-13, 1.4237600000000002E-06
DataValue, 6.3, 0.1, 1.4553900000000002E-06, 1.834E-12, -1.4565800000000003E-06, 3.1719999999999943E-07, 1.834E-12, 1.4553900000000002E-06
DataValue, 6.4, 0.1, 1.4872000000000001E-06, -5.38E-13, -1.48844E-06, 3.185999999999989E-07, 5.38E-13, 1.4872000000000001E-06
DataValue, 6.5, 0.1, 1.51911E-06, -2.49E-13, -1.5204E-06, 3.2069999999999969E-07, 2.49E-13, 1.51911E-06
