
SetupTitle, output RollOut
PrimitiveTest, I/V Sweep
TestParameter, Context.MainFrame, 4155C
TestParameter, Channel.UnitType, SMU, SMU, SMU
TestParameter, Channel.Unit, SMU1:MP, SMU2:MP, SMU3:MP
TestParameter, Channel.IName, ID, IG, IS
TestParameter, Channel.VName, VD, VG, VS
TestParameter, Channel.Mode, V, V, COMMON
TestParameter, Channel.Func, VAR1, VAR2, CONST
TestParameter, Channel.Index, 
TestParameter, Channel.Time, 
TestParameter, Measurement.Port.Unit, SMU1:MP, SMU2:MP, SMU3:MP
TestParameter, Measurement.Port.SeriesResistor, NONE, NONE, NONE
TestParameter, Measurement.Port.Filter, ON, ON, ON
TestParameter, Measurement.Primary.Locus, Single
TestParameter, Measurement.Primary.Scale, LINEAR
TestParameter, Measurement.Primary.Start, 0
TestParameter, Measurement.Primary.Stop, 7
TestParameter, Measurement.Primary.Step, 0.1
TestParameter, Measurement.Primary.Compliance, 0.01
TestParameter, Measurement.Primary.PowerCompliance, 0
TestParameter, Measurement.Aborting.Condition, CONTINUE AT ANY
TestParameter, Measurement.PostOutput.Value, START
TestParameter, Measurement.PostOutput.Retention, OFF
TestParameter, Measurement.Secondary.Start, -1
TestParameter, Measurement.Secondary.Count, 9
TestParameter, Measurement.Secondary.Step, 1
TestParameter, Measurement.Secondary.Compliance, 1E-08
TestParameter, Measurement.Secondary.PowerCompliance, 0
TestParameter, Measurement.Bias.Source, 0, -1, 0
TestParameter, Measurement.Bias.Compliance, 0.01, 1E-08, 0.1
TestParameter, Measurement.Monitor.Unit, SMU1:MP, SMU2:MP, SMU3:MP
TestParameter, Measurement.Monitor.Adc, HR ADC, HR ADC, HR ADC
TestParameter, Measurement.Monitor.RangingMode, LIMITED, LIMITED, LIMITED
TestParameter, Measurement.Monitor.RangeBoundary, 1nA, 1nA, 1nA
TestParameter, Measurement.Monitor.RangeRating, BY FULL RANGE, BY FULL RANGE, BY FULL RANGE
TestParameter, Measurement.Monitor.RangeRatingCoeff, 50, 50, 50
TestParameter, Measurement.Timing.Hold, 0
TestParameter, Measurement.Timing.Delay, 0
TestParameter, Measurement.Adc.HighResolution.AutoZero, OFF
TestParameter, Measurement.Adc.HighResolution.Mode, AUTO
TestParameter, Measurement.Adc.HighResolution.Coeff, 6
TestParameter, Measurement.Ag16440ASelector.SemiconductorRelay.Channel1, DEFAULT
TestParameter, Measurement.Ag16440ASelector.SemiconductorRelay.Channel3, DEFAULT
TestParameter, Function.Analysis.Name, absIg, absId
TestParameter, Function.Analysis.Unit, A, A
TestParameter, Function.Analysis.Definition, abs(IG), abs(ID)
TestParameter, Output.Graph.Enabled, true
TestParameter, Output.Graph.AutoScaling, false
TestParameter, Output.Graph.XAxis.Data, VD
TestParameter, Output.Graph.XAxis.Scale, Linear
TestParameter, Output.Graph.XAxis.Left, 0
TestParameter, Output.Graph.XAxis.Right, 8
TestParameter, Output.Graph.XAxis.RunTimeAutoScale, true
TestParameter, Output.Graph.YAxis.Data, absId, absIg
TestParameter, Output.Graph.YAxis.Scale, Linear, Log
TestParameter, Output.Graph.YAxis.Bottom, 0, 0
TestParameter, Output.Graph.YAxis.Top, 1, 1
TestParameter, Output.Graph.YAxis.Group, , 
TestParameter, Output.Graph.YAxis.RunTimeAutoScale, true, true
TestParameter, Output.List.Data, VG, IG, ID, IS, IS, VD, absIg, absId
TestParameter, AutoAnalysis.Interpolation, false
TestParameter, AutoAnalysis.Var2StepCount, 1
TestParameter, AutoAnalysis.Var2StepScript, 
TestParameter, AutoAnalysis.Line1.Enabled, false
TestParameter, AutoAnalysis.Line1.Type, 1
TestParameter, AutoAnalysis.Line1.Fix, True
TestParameter, AutoAnalysis.Line1.YAxis, 0
TestParameter, AutoAnalysis.Line1.Point1.Type, 0
TestParameter, AutoAnalysis.Line1.Point1.XY.X, 
TestParameter, AutoAnalysis.Line1.Point1.XY.Y, 
TestParameter, AutoAnalysis.Line1.Point1.Data.Var, 
TestParameter, AutoAnalysis.Line1.Point1.Data.Condition, 
TestParameter, AutoAnalysis.Line1.Point1.Data.Start, false
TestParameter, AutoAnalysis.Line1.Point1.Data.StartVar, 
TestParameter, AutoAnalysis.Line1.Point1.Data.StartCondition, 
TestParameter, AutoAnalysis.Line1.Point2.Type, 0
TestParameter, AutoAnalysis.Line1.Point2.XY.X, 
TestParameter, AutoAnalysis.Line1.Point2.XY.Y, 
TestParameter, AutoAnalysis.Line1.Point2.Data.Var, 
TestParameter, AutoAnalysis.Line1.Point2.Data.Condition, 
TestParameter, AutoAnalysis.Line1.Point2.Data.Start, false
TestParameter, AutoAnalysis.Line1.Point2.Data.StartVar, 
TestParameter, AutoAnalysis.Line1.Point2.Data.StartCondition, 
TestParameter, AutoAnalysis.Line1.GradientExpr, 0
TestParameter, AutoAnalysis.Line2.Enabled, false
TestParameter, AutoAnalysis.Line2.Type, 1
TestParameter, AutoAnalysis.Line2.Fix, True
TestParameter, AutoAnalysis.Line2.YAxis, 0
TestParameter, AutoAnalysis.Line2.Point1.Type, 0
TestParameter, AutoAnalysis.Line2.Point1.XY.X, 
TestParameter, AutoAnalysis.Line2.Point1.XY.Y, 
TestParameter, AutoAnalysis.Line2.Point1.Data.Var, 
TestParameter, AutoAnalysis.Line2.Point1.Data.Condition, 
TestParameter, AutoAnalysis.Line2.Point1.Data.Start, false
TestParameter, AutoAnalysis.Line2.Point1.Data.StartVar, 
TestParameter, AutoAnalysis.Line2.Point1.Data.StartCondition, 
TestParameter, AutoAnalysis.Line2.Point2.Type, 0
TestParameter, AutoAnalysis.Line2.Point2.XY.X, 
TestParameter, AutoAnalysis.Line2.Point2.XY.Y, 
TestParameter, AutoAnalysis.Line2.Point2.Data.Var, 
TestParameter, AutoAnalysis.Line2.Point2.Data.Condition, 
TestParameter, AutoAnalysis.Line2.Point2.Data.Start, false
TestParameter, AutoAnalysis.Line2.Point2.Data.StartVar, 
TestParameter, AutoAnalysis.Line2.Point2.Data.StartCondition, 
TestParameter, AutoAnalysis.Line2.GradientExpr, 0
TestParameter, AutoAnalysis.Marker.Enabled, false
TestParameter, AutoAnalysis.Marker.Data.Var, 
TestParameter, AutoAnalysis.Marker.Data.Condition, 
TestParameter, AutoAnalysis.Marker.Data.Start, false
TestParameter, AutoAnalysis.Marker.Data.StartVar, 
TestParameter, AutoAnalysis.Marker.Data.StartCondition, 
MetaData, TestRecord.EntryPoint, true
MetaData, TestRecord.RecordTime, 03/10/2020 10:01:18
MetaData, TestRecord.TestTarget, P1G3_50-5
MetaData, TestRecord.IterationIndex, 1
MetaData, TestRecord.Preservation, true
MetaData, TestRecord.Flag, 
MetaData, TestRecord.Remarks, output
MetaData, TestRecord.LinkKey, beaf11fa-67b9-4c7a-861a-c10f651e570f
MetaData, TestRecord.Parameters, 
Dimension1, 71, 71, 71, 71, 71, 71, 71
Dimension2, 9, 9, 9, 9, 9, 9, 9
DataName, VD, VG, ID, IG, IS, absIg, absId
DataValue, 0, -1, -1.03E-12, 2.7E-13, 1E-15, 2.7E-13, 1.03E-12
DataValue, 0.1, -1, -1.9490000000000003E-12, 3.51E-13, -3.4E-13, 3.51E-13, 1.9490000000000003E-12
DataValue, 0.2, -1, 3.1610000000000004E-12, -2.6760000000000003E-12, 1.4300000000000002E-12, 2.6760000000000003E-12, 3.1610000000000004E-12
DataValue, 0.3, -1, 2.75E-12, -1.4490000000000002E-12, 8.9900000000000011E-13, 1.4490000000000002E-12, 2.75E-12
DataValue, 0.4, -1, 3.965E-12, 1.4510000000000002E-12, 1.8400000000000002E-13, 1.4510000000000002E-12, 3.965E-12
DataValue, 0.5, -1, 3.4200000000000004E-12, 2.5790000000000002E-12, -5.36E-13, 2.5790000000000002E-12, 3.4200000000000004E-12
DataValue, 0.6, -1, 1.164E-12, 2.038E-12, -6.55E-13, 2.038E-12, 1.164E-12
DataValue, 0.70000000000000007, -1, -1.207E-12, 1.2590000000000002E-12, -8.070000000000001E-13, 1.2590000000000002E-12, 1.207E-12
DataValue, 0.8, -1, -2.477E-12, 6.62E-13, -6.77E-13, 6.62E-13, 2.477E-12
DataValue, 0.9, -1, -1.8950000000000003E-12, -1.4500000000000001E-13, -5.15E-13, 1.4500000000000001E-13, 1.8950000000000003E-12
DataValue, 1, -1, -1.195E-12, -8.68E-13, -2.58E-13, 8.68E-13, 1.195E-12
DataValue, 1.1, -1, -1.2880000000000002E-12, -1.308E-12, -5E-14, 1.308E-12, 1.2880000000000002E-12
DataValue, 1.2, -1, -1.7800000000000002E-13, -9.44E-13, 1.7400000000000002E-13, 9.44E-13, 1.7800000000000002E-13
DataValue, 1.3, -1, 2.7700000000000003E-13, -1.7300000000000002E-13, -4.5100000000000005E-13, 1.7300000000000002E-13, 2.7700000000000003E-13
DataValue, 1.4000000000000001, -1, 1.8080000000000002E-12, 1.249E-12, -1.64E-13, 1.249E-12, 1.8080000000000002E-12
DataValue, 1.5, -1, 9.3E-13, -1.03E-13, -6.5E-14, 1.03E-13, 9.3E-13
DataValue, 1.6, -1, 3.8E-14, -2.0100000000000003E-13, 2.2E-14, 2.0100000000000003E-13, 3.8E-14
DataValue, 1.7000000000000002, -1, -7.07E-13, -1.6800000000000002E-13, -3.3000000000000005E-14, 1.6800000000000002E-13, 7.07E-13
DataValue, 1.8, -1, -1.5000000000000002E-14, -2.5E-14, -2.2800000000000004E-13, 2.5E-14, 1.5000000000000002E-14
DataValue, 1.9000000000000001, -1, -9.97E-13, -3.0000000000000002E-15, -2.5100000000000004E-13, 3.0000000000000002E-15, 9.97E-13
DataValue, 2, -1, -3.8200000000000004E-13, 4.0200000000000005E-13, -3.5800000000000004E-13, 4.0200000000000005E-13, 3.8200000000000004E-13
DataValue, 2.1, -1, -4.0500000000000004E-13, -1.6E-14, -5.36E-13, 1.6E-14, 4.0500000000000004E-13
DataValue, 2.2, -1, -9.82E-13, 1E-13, -3.6800000000000005E-13, 1E-13, 9.82E-13
DataValue, 2.3000000000000003, -1, -6.16E-13, -2.4100000000000003E-13, -2.5E-13, 2.4100000000000003E-13, 6.16E-13
DataValue, 2.4, -1, 2.0100000000000003E-13, -1.9200000000000002E-13, -1.1000000000000001E-13, 1.9200000000000002E-13, 2.0100000000000003E-13
DataValue, 2.5, -1, 4.8200000000000007E-13, -9.5000000000000012E-14, -1.59E-13, 9.5000000000000012E-14, 4.8200000000000007E-13
DataValue, 2.6, -1, -2.1300000000000003E-13, -7.23E-13, -1.83E-13, 7.23E-13, 2.1300000000000003E-13
DataValue, 2.7, -1, -6.16E-13, -1.0750000000000002E-12, 1.23E-13, 1.0750000000000002E-12, 6.16E-13
DataValue, 2.8000000000000003, -1, -9.6200000000000014E-13, -1.0980000000000002E-12, 1.46E-13, 1.0980000000000002E-12, 9.6200000000000014E-13
DataValue, 2.9, -1, -6.35E-13, -1.2060000000000001E-12, -1.4400000000000002E-13, 1.2060000000000001E-12, 6.35E-13
DataValue, 3, -1, -1.151E-12, -8.94E-13, -1.4E-13, 8.94E-13, 1.151E-12
DataValue, 3.1, -1, 2.0400000000000001E-13, -5.36E-13, -3.0100000000000003E-13, 5.36E-13, 2.0400000000000001E-13
DataValue, 3.2, -1, 1.3200000000000002E-13, -4.2900000000000004E-13, -3.0000000000000003E-13, 4.2900000000000004E-13, 1.3200000000000002E-13
DataValue, 3.3000000000000003, -1, -2.2800000000000004E-13, -7.8600000000000008E-13, -2.6000000000000003E-14, 7.8600000000000008E-13, 2.2800000000000004E-13
DataValue, 3.4, -1, -5.0000000000000008E-15, -6.8900000000000009E-13, -7.4E-14, 6.8900000000000009E-13, 5.0000000000000008E-15
DataValue, 3.5, -1, 4.0700000000000003E-13, 3.8500000000000003E-13, -1E-13, 3.8500000000000003E-13, 4.0700000000000003E-13
DataValue, 3.6, -1, 8.5800000000000008E-13, 6.0100000000000006E-13, -1.9700000000000002E-13, 6.0100000000000006E-13, 8.5800000000000008E-13
DataValue, 3.7, -1, 7.4000000000000008E-13, 8.0900000000000009E-13, -2.49E-13, 8.0900000000000009E-13, 7.4000000000000008E-13
DataValue, 3.8000000000000003, -1, 3.8400000000000003E-13, 6.32E-13, -1.24E-13, 6.32E-13, 3.8400000000000003E-13
DataValue, 3.9, -1, 2.5E-14, -6.2E-14, -1.5100000000000001E-13, 6.2E-14, 2.5E-14
DataValue, 4, -1, -3.66E-13, -3.4500000000000004E-13, -1.0400000000000001E-13, 3.4500000000000004E-13, 3.66E-13
DataValue, 4.1, -1, -4.36E-13, -3.99E-13, -1.8500000000000002E-13, 3.99E-13, 4.36E-13
DataValue, 4.2, -1, -2.24E-13, -6.34E-13, -1.1400000000000002E-13, 6.34E-13, 2.24E-13
DataValue, 4.3, -1, -1.7E-13, -2.8900000000000003E-13, -1.06E-13, 2.8900000000000003E-13, 1.7E-13
DataValue, 4.4, -1, 1.3900000000000001E-13, -1.82E-13, -1.7300000000000002E-13, 1.82E-13, 1.3900000000000001E-13
DataValue, 4.5, -1, -3.0000000000000002E-15, -2.0800000000000002E-13, -1.9500000000000003E-13, 2.0800000000000002E-13, 3.0000000000000002E-15
DataValue, 4.6000000000000005, -1, -1.5100000000000001E-13, 6.7E-14, -1.71E-13, 6.7E-14, 1.5100000000000001E-13
DataValue, 4.7, -1, -2.9E-14, 8.0000000000000013E-14, -1.99E-13, 8.0000000000000013E-14, 2.9E-14
DataValue, 4.8, -1, -1.8000000000000002E-14, -1.3700000000000002E-13, -1.4300000000000002E-13, 1.3700000000000002E-13, 1.8000000000000002E-14
DataValue, 4.9, -1, -4.6000000000000006E-14, 1.7200000000000002E-13, -1.3800000000000002E-13, 1.7200000000000002E-13, 4.6000000000000006E-14
DataValue, 5, -1, 1.2000000000000002E-13, -9.2000000000000012E-14, -1.47E-13, 9.2000000000000012E-14, 1.2000000000000002E-13
DataValue, 5.1000000000000005, -1, 6.2E-14, -5.3E-14, -7.6E-14, 5.3E-14, 6.2E-14
DataValue, 5.2, -1, 1.87E-13, -7.1E-14, -9.8000000000000012E-14, 7.1E-14, 1.87E-13
DataValue, 5.3, -1, 1.8400000000000002E-13, -2.0400000000000001E-13, -9.9000000000000007E-14, 2.0400000000000001E-13, 1.8400000000000002E-13
DataValue, 5.4, -1, 1.3000000000000001E-14, 1.52E-13, -1.36E-13, 1.52E-13, 1.3000000000000001E-14
DataValue, 5.5, -1, 9.8000000000000012E-14, -2.47E-13, -1.7900000000000002E-13, 2.47E-13, 9.8000000000000012E-14
DataValue, 5.6000000000000005, -1, 6.6000000000000009E-14, -9.3000000000000008E-14, -1.7200000000000002E-13, 9.3000000000000008E-14, 6.6000000000000009E-14
DataValue, 5.7, -1, -1.5000000000000002E-14, 6.6000000000000009E-14, -1.6600000000000003E-13, 6.6000000000000009E-14, 1.5000000000000002E-14
DataValue, 5.8, -1, 8.7000000000000008E-14, -1.5100000000000001E-13, -1.87E-13, 1.5100000000000001E-13, 8.7000000000000008E-14
DataValue, 5.9, -1, -8.2E-14, 7.2000000000000009E-14, -2.33E-13, 7.2000000000000009E-14, 8.2E-14
DataValue, 6, -1, 9.2000000000000012E-14, -1.7E-14, -1.88E-13, 1.7E-14, 9.2000000000000012E-14
DataValue, 6.1000000000000005, -1, 3.4E-14, -1.6200000000000002E-13, -3.0100000000000003E-13, 1.6200000000000002E-13, 3.4E-14
DataValue, 6.2, -1, -4.0000000000000006E-14, 1.19E-13, -1.3E-13, 1.19E-13, 4.0000000000000006E-14
DataValue, 6.3, -1, 1.09E-13, -2.5300000000000003E-13, -1.25E-13, 2.5300000000000003E-13, 1.09E-13
DataValue, 6.4, -1, 1.6E-14, -1.77E-13, -1.4400000000000002E-13, 1.77E-13, 1.6E-14
DataValue, 6.5, -1, 8.1000000000000008E-14, -3.3000000000000005E-14, -2.12E-13, 3.3000000000000005E-14, 8.1000000000000008E-14
DataValue, 6.6000000000000005, -1, 1.0500000000000001E-13, -3.7100000000000003E-13, -1.5000000000000002E-13, 3.7100000000000003E-13, 1.0500000000000001E-13
DataValue, 6.7, -1, -1.16E-13, 0, -1.34E-13, 0, 1.16E-13
DataValue, 6.8, -1, 8.6000000000000012E-14, -7.8000000000000008E-14, -1.47E-13, 7.8000000000000008E-14, 8.6000000000000012E-14
DataValue, 6.9, -1, -1.5000000000000002E-14, -2.5E-13, -2.93E-13, 2.5E-13, 1.5000000000000002E-14
DataValue, 7, -1, -1.9200000000000002E-13, 1.1000000000000001E-13, -1.2600000000000002E-13, 1.1000000000000001E-13, 1.9200000000000002E-13
DataValue, 0, 0, -4.3099E-11, 8.2E-14, 3.7931E-11, 8.2E-14, 4.3099E-11
DataValue, 0.1, 0, 1.36797E-07, 2.0800000000000002E-13, -1.35647E-07, 2.0800000000000002E-13, 1.36797E-07
DataValue, 0.2, 0, 2.23049E-07, -5.4000000000000003E-14, -2.22563E-07, 5.4000000000000003E-14, 2.23049E-07
DataValue, 0.3, 0, 2.7338E-07, 1.0800000000000001E-13, -2.73187E-07, 1.0800000000000001E-13, 2.7338E-07
DataValue, 0.4, 0, 2.9993999999999997E-07, 7.8000000000000008E-14, -2.993E-07, 7.8000000000000008E-14, 2.9993999999999997E-07
DataValue, 0.5, 0, 3.12967E-07, -2.2600000000000002E-13, -3.12422E-07, 2.2600000000000002E-13, 3.12967E-07
DataValue, 0.6, 0, 3.18909E-07, 9.3000000000000008E-14, -3.1817299999999997E-07, 9.3000000000000008E-14, 3.18909E-07
DataValue, 0.70000000000000007, 0, 3.21969E-07, -1.7900000000000002E-13, -3.2097299999999997E-07, 1.7900000000000002E-13, 3.21969E-07
DataValue, 0.8, 0, 3.23058E-07, -8.8E-14, -3.2255699999999997E-07, 8.8E-14, 3.23058E-07
DataValue, 0.9, 0, 3.23939E-07, 1.6000000000000003E-13, -3.23219E-07, 1.6000000000000003E-13, 3.23939E-07
DataValue, 1, 0, 3.2467E-07, -1.76E-13, -3.24034E-07, 1.76E-13, 3.2467E-07
DataValue, 1.1, 0, 3.24478E-07, 2.5E-14, -3.23671E-07, 2.5E-14, 3.24478E-07
DataValue, 1.2, 0, 3.24355E-07, 8.5E-14, -3.22982E-07, 8.5E-14, 3.24355E-07
DataValue, 1.3, 0, 3.2353E-07, -1.71E-13, -3.2279299999999997E-07, 1.71E-13, 3.2353E-07
DataValue, 1.4000000000000001, 0, 3.23811E-07, 1.7E-14, -3.23438E-07, 1.7E-14, 3.23811E-07
DataValue, 1.5, 0, 3.24011E-07, -3.7E-14, -3.2321099999999997E-07, 3.7E-14, 3.24011E-07
DataValue, 1.6, 0, 3.23843E-07, -4.4E-14, -3.22921E-07, 4.4E-14, 3.23843E-07
DataValue, 1.7000000000000002, 0, 3.23465E-07, 3.2E-14, -3.22517E-07, 3.2E-14, 3.23465E-07
DataValue, 1.8, 0, 3.23365E-07, -2.06E-13, -3.22314E-07, 2.06E-13, 3.23365E-07
DataValue, 1.9000000000000001, 0, 3.2296E-07, 1.3E-13, -3.21938E-07, 1.3E-13, 3.2296E-07
DataValue, 2, 0, 3.22754E-07, 1.6E-14, -3.21795E-07, 1.6E-14, 3.22754E-07
DataValue, 2.1, 0, 3.22175E-07, -2.5300000000000003E-13, -3.20951E-07, 2.5300000000000003E-13, 3.22175E-07
DataValue, 2.2, 0, 3.21183E-07, 7.3E-14, -3.2088099999999997E-07, 7.3E-14, 3.21183E-07
DataValue, 2.3000000000000003, 0, 3.2125299999999997E-07, -1.3700000000000002E-13, -3.21112E-07, 1.3700000000000002E-13, 3.2125299999999997E-07
DataValue, 2.4, 0, 3.21514E-07, -6.4E-14, -3.20744E-07, 6.4E-14, 3.21514E-07
DataValue, 2.5, 0, 3.2125E-07, 2.12E-13, -3.21218E-07, 2.12E-13, 3.2125E-07
DataValue, 2.6, 0, 3.21262E-07, -2.23E-13, -3.19953E-07, 2.23E-13, 3.21262E-07
DataValue, 2.7, 0, 3.2071E-07, 1.5000000000000002E-14, -3.20028E-07, 1.5000000000000002E-14, 3.2071E-07
DataValue, 2.8000000000000003, 0, 3.20115E-07, 1.09E-13, -3.19583E-07, 1.09E-13, 3.20115E-07
DataValue, 2.9, 0, 3.19921E-07, -2.1000000000000001E-13, -3.19591E-07, 2.1000000000000001E-13, 3.19921E-07
DataValue, 3, 0, 3.19951E-07, 1.12E-13, -3.19244E-07, 1.12E-13, 3.19951E-07
DataValue, 3.1, 0, 3.19582E-07, -1.4500000000000001E-13, -3.18878E-07, 1.4500000000000001E-13, 3.19582E-07
DataValue, 3.2, 0, 3.18997E-07, -1.5000000000000002E-14, -3.18203E-07, 1.5000000000000002E-14, 3.18997E-07
DataValue, 3.3000000000000003, 0, 3.18427E-07, 9.9000000000000007E-14, -3.18352E-07, 9.9000000000000007E-14, 3.18427E-07
DataValue, 3.4, 0, 3.18486E-07, -1.93E-13, -3.17668E-07, 1.93E-13, 3.18486E-07
DataValue, 3.5, 0, 3.17768E-07, 6.0000000000000009E-14, -3.17572E-07, 6.0000000000000009E-14, 3.17768E-07
DataValue, 3.6, 0, 3.17817E-07, 1.1500000000000002E-13, -3.17766E-07, 1.1500000000000002E-13, 3.17817E-07
DataValue, 3.7, 0, 3.17961E-07, -2.06E-13, -3.17102E-07, 2.06E-13, 3.17961E-07
DataValue, 3.8000000000000003, 0, 3.17429E-07, 2.1600000000000001E-13, -3.166E-07, 2.1600000000000001E-13, 3.17429E-07
DataValue, 3.9, 0, 3.17274E-07, -9.6000000000000007E-14, -3.16481E-07, 9.6000000000000007E-14, 3.17274E-07
DataValue, 4, 0, 3.1695499999999997E-07, -3.5E-14, -3.16154E-07, 3.5E-14, 3.1695499999999997E-07
DataValue, 4.1, 0, 3.16373E-07, 1.35E-13, -3.15763E-07, 1.35E-13, 3.16373E-07
DataValue, 4.2, 0, 3.16171E-07, -1.22E-13, -3.15479E-07, 1.22E-13, 3.16171E-07
DataValue, 4.3, 0, 3.15631E-07, 7.5000000000000009E-14, -3.15712E-07, 7.5000000000000009E-14, 3.15631E-07
DataValue, 4.4, 0, 3.162E-07, 1.3000000000000001E-14, -3.15088E-07, 1.3000000000000001E-14, 3.162E-07
DataValue, 4.5, 0, 3.15382E-07, -4.6000000000000006E-14, -3.14624E-07, 4.6000000000000006E-14, 3.15382E-07
DataValue, 4.6000000000000005, 0, 3.15416E-07, 2.33E-13, -3.14333E-07, 2.33E-13, 3.15416E-07
DataValue, 4.7, 0, 3.14607E-07, -1.6200000000000002E-13, -3.1439E-07, 1.6200000000000002E-13, 3.14607E-07
DataValue, 4.8, 0, 3.14721E-07, -4.3000000000000006E-14, -3.1401E-07, 4.3000000000000006E-14, 3.14721E-07
DataValue, 4.9, 0, 3.14557E-07, 2.4100000000000003E-13, -3.13606E-07, 2.4100000000000003E-13, 3.14557E-07
DataValue, 5, 0, 3.14384E-07, -1.4E-13, -3.13991E-07, 1.4E-13, 3.14384E-07
DataValue, 5.1000000000000005, 0, 3.14165E-07, 1.12E-13, -3.13472E-07, 1.12E-13, 3.14165E-07
DataValue, 5.2, 0, 3.13807E-07, 6.4E-14, -3.12937E-07, 6.4E-14, 3.13807E-07
DataValue, 5.3, 0, 3.13552E-07, -1.2100000000000002E-13, -3.13132E-07, 1.2100000000000002E-13, 3.13552E-07
DataValue, 5.4, 0, 3.13567E-07, 1.28E-13, -3.12512E-07, 1.28E-13, 3.13567E-07
DataValue, 5.5, 0, 3.1302E-07, 1.2000000000000001E-14, -3.13242E-07, 1.2000000000000001E-14, 3.1302E-07
DataValue, 5.6000000000000005, 0, 3.13779E-07, 2E-15, -3.12919E-07, 2E-15, 3.13779E-07
DataValue, 5.7, 0, 3.13247E-07, 9.9000000000000007E-14, -3.12745E-07, 9.9000000000000007E-14, 3.13247E-07
DataValue, 5.8, 0, 3.13066E-07, -5.8E-14, -3.12499E-07, 5.8E-14, 3.13066E-07
