
SetupTitle, output RollOut
PrimitiveTest, I/V Sweep
TestParameter, Context.MainFrame, 4155C
TestParameter, Channel.UnitType, SMU, SMU, SMU
TestParameter, Channel.Unit, SMU1:MP, SMU2:MP, SMU3:MP
TestParameter, Channel.IName, ID, IG, IS
TestParameter, Channel.VName, VD, VG, VS
TestParameter, Channel.Mode, V, V, COMMON
TestParameter, Channel.Func, VAR1, VAR2, CONST
TestParameter, Channel.Index, 
TestParameter, Channel.Time, 
TestParameter, Measurement.Port.Unit, SMU1:MP, SMU2:MP, SMU3:MP
TestParameter, Measurement.Port.SeriesResistor, NONE, NONE, NONE
TestParameter, Measurement.Port.Filter, ON, ON, ON
TestParameter, Measurement.Primary.Locus, Single
TestParameter, Measurement.Primary.Scale, LINEAR
TestParameter, Measurement.Primary.Start, 0
TestParameter, Measurement.Primary.Stop, 7
TestParameter, Measurement.Primary.Step, 0.1
TestParameter, Measurement.Primary.Compliance, 0.01
TestParameter, Measurement.Primary.PowerCompliance, 0
TestParameter, Measurement.Aborting.Condition, CONTINUE AT ANY
TestParameter, Measurement.PostOutput.Value, START
TestParameter, Measurement.PostOutput.Retention, OFF
TestParameter, Measurement.Secondary.Start, -1
TestParameter, Measurement.Secondary.Count, 9
TestParameter, Measurement.Secondary.Step, 1
TestParameter, Measurement.Secondary.Compliance, 1E-08
TestParameter, Measurement.Secondary.PowerCompliance, 0
TestParameter, Measurement.Bias.Source, 0, -1, 0
TestParameter, Measurement.Bias.Compliance, 0.01, 1E-08, 0.1
TestParameter, Measurement.Monitor.Unit, SMU1:MP, SMU2:MP, SMU3:MP
TestParameter, Measurement.Monitor.Adc, HR ADC, HR ADC, HR ADC
TestParameter, Measurement.Monitor.RangingMode, LIMITED, LIMITED, LIMITED
TestParameter, Measurement.Monitor.RangeBoundary, 1nA, 1nA, 1nA
TestParameter, Measurement.Monitor.RangeRating, BY FULL RANGE, BY FULL RANGE, BY FULL RANGE
TestParameter, Measurement.Monitor.RangeRatingCoeff, 50, 50, 50
TestParameter, Measurement.Timing.Hold, 0
TestParameter, Measurement.Timing.Delay, 0
TestParameter, Measurement.Adc.HighResolution.AutoZero, OFF
TestParameter, Measurement.Adc.HighResolution.Mode, AUTO
TestParameter, Measurement.Adc.HighResolution.Coeff, 6
TestParameter, Measurement.Ag16440ASelector.SemiconductorRelay.Channel1, DEFAULT
TestParameter, Measurement.Ag16440ASelector.SemiconductorRelay.Channel3, DEFAULT
TestParameter, Function.Analysis.Name, absIg, absId
TestParameter, Function.Analysis.Unit, A, A
TestParameter, Function.Analysis.Definition, abs(IG), abs(ID)
TestParameter, Output.Graph.Enabled, true
TestParameter, Output.Graph.AutoScaling, false
TestParameter, Output.Graph.XAxis.Data, VD
TestParameter, Output.Graph.XAxis.Scale, Linear
TestParameter, Output.Graph.XAxis.Left, 0
TestParameter, Output.Graph.XAxis.Right, 8
TestParameter, Output.Graph.XAxis.RunTimeAutoScale, true
TestParameter, Output.Graph.YAxis.Data, absId, absIg
TestParameter, Output.Graph.YAxis.Scale, Linear, Log
TestParameter, Output.Graph.YAxis.Bottom, 0, 0
TestParameter, Output.Graph.YAxis.Top, 1, 1
TestParameter, Output.Graph.YAxis.Group, , 
TestParameter, Output.Graph.YAxis.RunTimeAutoScale, true, true
TestParameter, Output.List.Data, VG, IG, ID, IS, IS, VD, absIg, absId
TestParameter, AutoAnalysis.Interpolation, false
TestParameter, AutoAnalysis.Var2StepCount, 1
TestParameter, AutoAnalysis.Var2StepScript, 
TestParameter, AutoAnalysis.Line1.Enabled, false
TestParameter, AutoAnalysis.Line1.Type, 1
TestParameter, AutoAnalysis.Line1.Fix, True
TestParameter, AutoAnalysis.Line1.YAxis, 0
TestParameter, AutoAnalysis.Line1.Point1.Type, 0
TestParameter, AutoAnalysis.Line1.Point1.XY.X, 
TestParameter, AutoAnalysis.Line1.Point1.XY.Y, 
TestParameter, AutoAnalysis.Line1.Point1.Data.Var, 
TestParameter, AutoAnalysis.Line1.Point1.Data.Condition, 
TestParameter, AutoAnalysis.Line1.Point1.Data.Start, false
TestParameter, AutoAnalysis.Line1.Point1.Data.StartVar, 
TestParameter, AutoAnalysis.Line1.Point1.Data.StartCondition, 
TestParameter, AutoAnalysis.Line1.Point2.Type, 0
TestParameter, AutoAnalysis.Line1.Point2.XY.X, 
TestParameter, AutoAnalysis.Line1.Point2.XY.Y, 
TestParameter, AutoAnalysis.Line1.Point2.Data.Var, 
TestParameter, AutoAnalysis.Line1.Point2.Data.Condition, 
TestParameter, AutoAnalysis.Line1.Point2.Data.Start, false
TestParameter, AutoAnalysis.Line1.Point2.Data.StartVar, 
TestParameter, AutoAnalysis.Line1.Point2.Data.StartCondition, 
TestParameter, AutoAnalysis.Line1.GradientExpr, 0
TestParameter, AutoAnalysis.Line2.Enabled, false
TestParameter, AutoAnalysis.Line2.Type, 1
TestParameter, AutoAnalysis.Line2.Fix, True
TestParameter, AutoAnalysis.Line2.YAxis, 0
TestParameter, AutoAnalysis.Line2.Point1.Type, 0
TestParameter, AutoAnalysis.Line2.Point1.XY.X, 
TestParameter, AutoAnalysis.Line2.Point1.XY.Y, 
TestParameter, AutoAnalysis.Line2.Point1.Data.Var, 
TestParameter, AutoAnalysis.Line2.Point1.Data.Condition, 
TestParameter, AutoAnalysis.Line2.Point1.Data.Start, false
TestParameter, AutoAnalysis.Line2.Point1.Data.StartVar, 
TestParameter, AutoAnalysis.Line2.Point1.Data.StartCondition, 
TestParameter, AutoAnalysis.Line2.Point2.Type, 0
TestParameter, AutoAnalysis.Line2.Point2.XY.X, 
TestParameter, AutoAnalysis.Line2.Point2.XY.Y, 
TestParameter, AutoAnalysis.Line2.Point2.Data.Var, 
TestParameter, AutoAnalysis.Line2.Point2.Data.Condition, 
TestParameter, AutoAnalysis.Line2.Point2.Data.Start, false
TestParameter, AutoAnalysis.Line2.Point2.Data.StartVar, 
TestParameter, AutoAnalysis.Line2.Point2.Data.StartCondition, 
TestParameter, AutoAnalysis.Line2.GradientExpr, 0
TestParameter, AutoAnalysis.Marker.Enabled, false
TestParameter, AutoAnalysis.Marker.Data.Var, 
TestParameter, AutoAnalysis.Marker.Data.Condition, 
TestParameter, AutoAnalysis.Marker.Data.Start, false
TestParameter, AutoAnalysis.Marker.Data.StartVar, 
TestParameter, AutoAnalysis.Marker.Data.StartCondition, 
MetaData, TestRecord.EntryPoint, true
MetaData, TestRecord.RecordTime, 03/10/2020 10:10:19
MetaData, TestRecord.TestTarget, P1G3_50-20
MetaData, TestRecord.IterationIndex, 1
MetaData, TestRecord.Preservation, true
MetaData, TestRecord.Flag, 
MetaData, TestRecord.Remarks, output
MetaData, TestRecord.LinkKey, d4beff31-80b7-42c0-932e-be24c2c73895
MetaData, TestRecord.Parameters, 
Dimension1, 71, 71, 71, 71, 71, 71, 71
Dimension2, 9, 9, 9, 9, 9, 9, 9
DataName, VD, VG, ID, IG, IS, absIg, absId
DataValue, 0, -1, 6.9600000000000006E-13, -4.13E-13, 4.88E-13, 4.13E-13, 6.9600000000000006E-13
DataValue, 0.1, -1, -2.6500000000000003E-13, -6.0400000000000005E-13, -5.2800000000000007E-13, 6.0400000000000005E-13, 2.6500000000000003E-13
DataValue, 0.2, -1, -2.2630000000000004E-12, 7.77E-13, -5.41E-13, 7.77E-13, 2.2630000000000004E-12
DataValue, 0.3, -1, 4.45E-13, 1.521E-12, 4.4900000000000006E-13, 1.521E-12, 4.45E-13
DataValue, 0.4, -1, 1.233E-12, -2.389E-12, -9.6000000000000007E-14, 2.389E-12, 1.233E-12
DataValue, 0.5, -1, -1.4650000000000001E-12, -1.4360000000000001E-12, -3.3500000000000004E-13, 1.4360000000000001E-12, 1.4650000000000001E-12
DataValue, 0.6, -1, -1.638E-12, 1.88E-13, -2.83E-13, 1.88E-13, 1.638E-12
DataValue, 0.70000000000000007, -1, 4.3900000000000005E-13, -4.2500000000000006E-13, -2.5300000000000003E-13, 4.2500000000000006E-13, 4.3900000000000005E-13
DataValue, 0.8, -1, -2.2000000000000002E-13, -1.069E-12, 1.7E-14, 1.069E-12, 2.2000000000000002E-13
DataValue, 0.9, -1, -2.2200000000000001E-13, -1.178E-12, 1.1E-14, 1.178E-12, 2.2200000000000001E-13
DataValue, 1, -1, 2.8800000000000004E-13, -5.13E-13, 1.36E-13, 5.13E-13, 2.8800000000000004E-13
DataValue, 1.1, -1, 1.078E-12, -5.3300000000000005E-13, 4.45E-13, 5.3300000000000005E-13, 1.078E-12
DataValue, 1.2, -1, 1.354E-12, -6.6900000000000008E-13, 6.9800000000000006E-13, 6.6900000000000008E-13, 1.354E-12
DataValue, 1.3, -1, 7.73E-13, -1.575E-12, 6.4800000000000007E-13, 1.575E-12, 7.73E-13
DataValue, 1.4000000000000001, -1, -3.6000000000000003E-13, -2.161E-12, 2.0100000000000003E-13, 2.161E-12, 3.6000000000000003E-13
DataValue, 1.5, -1, -9.4500000000000011E-13, -1.59E-12, -2.0400000000000001E-13, 1.59E-12, 9.4500000000000011E-13
DataValue, 1.6, -1, -1.205E-12, -3.2300000000000004E-13, -6.5100000000000005E-13, 3.2300000000000004E-13, 1.205E-12
DataValue, 1.7000000000000002, -1, -1.057E-12, 2.45E-13, -7.72E-13, 2.45E-13, 1.057E-12
DataValue, 1.8, -1, -8.050000000000001E-13, 9.4100000000000013E-13, -6.2000000000000008E-13, 9.4100000000000013E-13, 8.050000000000001E-13
DataValue, 1.9000000000000001, -1, -1.6600000000000003E-13, 9.19E-13, -4.0700000000000003E-13, 9.19E-13, 1.6600000000000003E-13
DataValue, 2, -1, -4.3000000000000006E-14, 5.0500000000000007E-13, -1.25E-13, 5.0500000000000007E-13, 4.3000000000000006E-14
DataValue, 2.1, -1, 1.35E-13, 2.72E-13, 6.9000000000000009E-14, 2.72E-13, 1.35E-13
DataValue, 2.2, -1, 2.0800000000000002E-13, -2.95E-13, 7.4E-14, 2.95E-13, 2.0800000000000002E-13
DataValue, 2.3000000000000003, -1, 2.0200000000000002E-13, -2.33E-13, 2.1600000000000001E-13, 2.33E-13, 2.0200000000000002E-13
DataValue, 2.4, -1, 4.95E-13, -5.0800000000000006E-13, 1.6200000000000002E-13, 5.0800000000000006E-13, 4.95E-13
DataValue, 2.5, -1, 3.08E-13, -3.65E-13, 1.0200000000000001E-13, 3.65E-13, 3.08E-13
DataValue, 2.6, -1, 3.08E-13, -5.9E-13, -2.3000000000000003E-14, 5.9E-13, 3.08E-13
DataValue, 2.7, -1, -2.83E-13, -5.8000000000000005E-13, -2.84E-13, 5.8000000000000005E-13, 2.83E-13
DataValue, 2.8000000000000003, -1, -2.96E-13, -3.4E-14, -3.03E-13, 3.4E-14, 2.96E-13
DataValue, 2.9, -1, -7.26E-13, 3.16E-13, -3.6700000000000005E-13, 3.16E-13, 7.26E-13
DataValue, 3, -1, -5.7800000000000006E-13, -6.1E-14, -3.8000000000000005E-13, 6.1E-14, 5.7800000000000006E-13
DataValue, 3.1, -1, -6.6E-13, 2.1600000000000001E-13, -2.5E-13, 2.1600000000000001E-13, 6.6E-13
DataValue, 3.2, -1, -4.6200000000000005E-13, -2.67E-13, -1.2000000000000002E-13, 2.67E-13, 4.6200000000000005E-13
DataValue, 3.3000000000000003, -1, 5.18E-13, -8.68E-13, 7.2000000000000009E-14, 8.68E-13, 5.18E-13
DataValue, 3.4, -1, -1.1060000000000001E-12, -4.13E-13, 3.6000000000000004E-14, 4.13E-13, 1.1060000000000001E-12
DataValue, 3.5, -1, 2.3000000000000003E-14, -1.007E-12, -2.2100000000000002E-13, 1.007E-12, 2.3000000000000003E-14
DataValue, 3.6, -1, 5.9500000000000009E-13, -1.36E-13, 1.4E-13, 1.36E-13, 5.9500000000000009E-13
DataValue, 3.7, -1, 2.57E-13, 4.5000000000000004E-14, 1.0400000000000001E-13, 4.5000000000000004E-14, 2.57E-13
DataValue, 3.8000000000000003, -1, -1.88E-13, -5.9E-13, -1.6800000000000002E-13, 5.9E-13, 1.88E-13
DataValue, 3.9, -1, -3.9200000000000005E-13, -3.51E-13, -2.2700000000000002E-13, 3.51E-13, 3.9200000000000005E-13
DataValue, 4, -1, -8.26E-13, -1.0800000000000001E-13, -2.83E-13, 1.0800000000000001E-13, 8.26E-13
DataValue, 4.1, -1, 2.1400000000000002E-13, -2.0200000000000002E-13, -1.63E-13, 2.0200000000000002E-13, 2.1400000000000002E-13
DataValue, 4.2, -1, -2.2E-14, 1.9600000000000002E-13, -1.41E-13, 1.9600000000000002E-13, 2.2E-14
DataValue, 4.3, -1, 8.8E-14, -8.1200000000000007E-13, -1.42E-13, 8.1200000000000007E-13, 8.8E-14
DataValue, 4.4, -1, -6.86E-13, -6.84E-13, -8.3000000000000012E-14, 6.84E-13, 6.86E-13
DataValue, 4.5, -1, 1.19E-13, -2.81E-13, -8.4000000000000008E-14, 2.81E-13, 1.19E-13
DataValue, 4.6000000000000005, -1, 2.6500000000000003E-13, -2.37E-13, -8.8E-14, 2.37E-13, 2.6500000000000003E-13
DataValue, 4.7, -1, -2.12E-13, 3.8E-14, -1.0100000000000001E-13, 3.8E-14, 2.12E-13
DataValue, 4.8, -1, -1.8400000000000002E-13, -3.62E-13, -2.84E-13, 3.62E-13, 1.8400000000000002E-13
DataValue, 4.9, -1, -1.54E-13, -3.3600000000000003E-13, -2.2500000000000003E-13, 3.3600000000000003E-13, 1.54E-13
DataValue, 5, -1, -3.2500000000000003E-13, -2.58E-13, -2.91E-13, 2.58E-13, 3.2500000000000003E-13
DataValue, 5.1000000000000005, -1, -7.4200000000000007E-13, 2.61E-13, -1.18E-13, 2.61E-13, 7.4200000000000007E-13
DataValue, 5.2, -1, -5.5100000000000008E-13, 2.0700000000000003E-13, -1.6100000000000002E-13, 2.0700000000000003E-13, 5.5100000000000008E-13
DataValue, 5.3, -1, -8.050000000000001E-13, 2.17E-13, -2.1400000000000002E-13, 2.17E-13, 8.050000000000001E-13
DataValue, 5.4, -1, 3.7200000000000003E-13, 3.0000000000000002E-15, -9.3000000000000008E-14, 3.0000000000000002E-15, 3.7200000000000003E-13
DataValue, 5.5, -1, 6.09E-13, 2.347E-12, 2.37E-13, 2.347E-12, 6.09E-13
DataValue, 5.6000000000000005, -1, 1.046E-12, 2.001E-12, 4.21E-13, 2.001E-12, 1.046E-12
DataValue, 5.7, -1, 1.109E-12, -3.6000000000000004E-14, -3.5700000000000004E-13, 3.6000000000000004E-14, 1.109E-12
DataValue, 5.8, -1, 1E-12, -4.2800000000000004E-13, 3.5E-14, 4.2800000000000004E-13, 1E-12
DataValue, 5.9, -1, -3.4200000000000004E-12, 2.1660000000000003E-12, 3.2E-14, 2.1660000000000003E-12, 3.4200000000000004E-12
DataValue, 6, -1, -3.9000000000000005E-13, -2.206E-12, 2.67E-13, 2.206E-12, 3.9000000000000005E-13
DataValue, 6.1000000000000005, -1, -1.8000000000000002E-14, -3.263E-12, 3.27E-13, 3.263E-12, 1.8000000000000002E-14
DataValue, 6.2, -1, 9.6600000000000012E-13, -1.324E-12, 4.5000000000000005E-13, 1.324E-12, 9.6600000000000012E-13
DataValue, 6.3, -1, 2.47E-12, -4.2900000000000004E-13, 7.49E-13, 4.2900000000000004E-13, 2.47E-12
DataValue, 6.4, -1, 1.6780000000000001E-12, -1.7200000000000002E-13, 5.22E-13, 1.7200000000000002E-13, 1.6780000000000001E-12
DataValue, 6.5, -1, 1.1420000000000002E-12, -1.5000000000000002E-13, -9.0000000000000011E-15, 1.5000000000000002E-13, 1.1420000000000002E-12
DataValue, 6.6000000000000005, -1, 5.0300000000000008E-13, 7.350000000000001E-13, -1.9E-14, 7.350000000000001E-13, 5.0300000000000008E-13
DataValue, 6.7, -1, 2.82E-13, 2.17E-13, -2.8600000000000004E-13, 2.17E-13, 2.82E-13
DataValue, 6.8, -1, -1.82E-13, 7.6100000000000009E-13, -5.4E-13, 7.6100000000000009E-13, 1.82E-13
DataValue, 6.9, -1, -4.69E-13, 2.5800000000000003E-12, -1.4500000000000001E-13, 2.5800000000000003E-12, 4.69E-13
DataValue, 7, -1, 1.9580000000000003E-12, -1.875E-12, -8.8700000000000006E-13, 1.875E-12, 1.9580000000000003E-12
DataValue, 0, 0, -2.6050000000000003E-12, -8.0300000000000011E-13, -5.68E-13, 8.0300000000000011E-13, 2.6050000000000003E-12
DataValue, 0.1, 0, 4.6517000000000005E-11, 3.52E-13, -4.7734E-11, 3.52E-13, 4.6517000000000005E-11
DataValue, 0.2, 0, 5.1503E-11, -8.7000000000000008E-14, -5.2222000000000006E-11, 8.7000000000000008E-14, 5.1503E-11
DataValue, 0.3, 0, 5.1702000000000004E-11, 1.24E-13, -5.2245E-11, 1.24E-13, 5.1702000000000004E-11
DataValue, 0.4, 0, 5.1903E-11, 7E-14, -5.178E-11, 7E-14, 5.1903E-11
DataValue, 0.5, 0, 5.2323000000000006E-11, -8.1700000000000005E-13, -5.1543000000000004E-11, 8.1700000000000005E-13, 5.2323000000000006E-11
DataValue, 0.6, 0, 5.2781000000000006E-11, -6.6500000000000009E-13, -5.1519000000000005E-11, 6.6500000000000009E-13, 5.2781000000000006E-11
DataValue, 0.70000000000000007, 0, 5.1833000000000003E-11, 4.0600000000000004E-13, -5.1742000000000005E-11, 4.0600000000000004E-13, 5.1833000000000003E-11
DataValue, 0.8, 0, 5.2003E-11, 8.9800000000000011E-13, -5.1537000000000004E-11, 8.9800000000000011E-13, 5.2003E-11
DataValue, 0.9, 0, 5.2027000000000007E-11, 2.7800000000000003E-13, -5.1616E-11, 2.7800000000000003E-13, 5.2027000000000007E-11
DataValue, 1, 0, 5.0865000000000003E-11, 1.034E-12, -5.1317000000000004E-11, 1.034E-12, 5.0865000000000003E-11
DataValue, 1.1, 0, 5.0738000000000006E-11, -7.3E-14, -5.1405E-11, 7.3E-14, 5.0738000000000006E-11
DataValue, 1.2, 0, 5.0334000000000004E-11, 1.64E-13, -5.1417E-11, 1.64E-13, 5.0334000000000004E-11
DataValue, 1.3, 0, 5.0654E-11, -1.4E-14, -5.1260000000000006E-11, 1.4E-14, 5.0654E-11
DataValue, 1.4000000000000001, 0, 5.0373E-11, -3.42E-13, -5.1061000000000005E-11, 3.42E-13, 5.0373E-11
DataValue, 1.5, 0, 5.0492E-11, -2.38E-13, -5.1039000000000003E-11, 2.38E-13, 5.0492E-11
DataValue, 1.6, 0, 5.0906000000000006E-11, -1.3900000000000001E-13, -5.1028000000000006E-11, 1.3900000000000001E-13, 5.0906000000000006E-11
DataValue, 1.7000000000000002, 0, 5.0460000000000006E-11, 1.7400000000000002E-13, -5.0774000000000005E-11, 1.7400000000000002E-13, 5.0460000000000006E-11
DataValue, 1.8, 0, 5.0323000000000007E-11, -8.5E-14, -5.0600000000000005E-11, 8.5E-14, 5.0323000000000007E-11
DataValue, 1.9000000000000001, 0, 5.0337000000000004E-11, -2.2700000000000002E-13, -5.0842000000000007E-11, 2.2700000000000002E-13, 5.0337000000000004E-11
DataValue, 2, 0, 5.0560000000000004E-11, 1.5600000000000002E-13, -5.0754E-11, 1.5600000000000002E-13, 5.0560000000000004E-11
DataValue, 2.1, 0, 5.0218000000000004E-11, -2.55E-13, -5.0621000000000004E-11, 2.55E-13, 5.0218000000000004E-11
DataValue, 2.2, 0, 5.0312E-11, -2.8E-14, -5.0287E-11, 2.8E-14, 5.0312E-11
DataValue, 2.3000000000000003, 0, 5.0759000000000005E-11, -6.1900000000000009E-13, -5.0407000000000004E-11, 6.1900000000000009E-13, 5.0759000000000005E-11
DataValue, 2.4, 0, 4.9927E-11, -2.67E-13, -5.0588000000000005E-11, 2.67E-13, 4.9927E-11
DataValue, 2.5, 0, 4.9757000000000005E-11, 3.4500000000000004E-13, -5.0536000000000005E-11, 3.4500000000000004E-13, 4.9757000000000005E-11
DataValue, 2.6, 0, 4.9695E-11, 2.24E-13, -5.0577E-11, 2.24E-13, 4.9695E-11
DataValue, 2.7, 0, 5.0485000000000007E-11, 3.2000000000000005E-13, -5.0481000000000005E-11, 3.2000000000000005E-13, 5.0485000000000007E-11
DataValue, 2.8000000000000003, 0, 4.9518E-11, 2.0900000000000002E-13, -5.0299E-11, 2.0900000000000002E-13, 4.9518E-11
DataValue, 2.9, 0, 5.0153E-11, -1.8500000000000002E-13, -5.0274000000000007E-11, 1.8500000000000002E-13, 5.0153E-11
DataValue, 3, 0, 4.9917E-11, 2.6000000000000003E-14, -5.0392000000000004E-11, 2.6000000000000003E-14, 4.9917E-11
DataValue, 3.1, 0, 5.0202E-11, -1.4900000000000002E-13, -5.0335000000000006E-11, 1.4900000000000002E-13, 5.0202E-11
DataValue, 3.2, 0, 4.9769000000000004E-11, -2.9900000000000004E-13, -5.0401000000000004E-11, 2.9900000000000004E-13, 4.9769000000000004E-11
DataValue, 3.3000000000000003, 0, 4.9772000000000004E-11, -2.4000000000000004E-13, -5.0419E-11, 2.4000000000000004E-13, 4.9772000000000004E-11
DataValue, 3.4, 0, 4.9783E-11, 1.0100000000000001E-13, -5.0386000000000004E-11, 1.0100000000000001E-13, 4.9783E-11
DataValue, 3.5, 0, 5.0025E-11, -3.39E-13, -5.0321E-11, 3.39E-13, 5.0025E-11
DataValue, 3.6, 0, 4.9953000000000006E-11, -1.9000000000000002E-13, -5.0093000000000005E-11, 1.9000000000000002E-13, 4.9953000000000006E-11
DataValue, 3.7, 0, 5.0078000000000005E-11, -3.3300000000000005E-13, -5.0093000000000005E-11, 3.3300000000000005E-13, 5.0078000000000005E-11
DataValue, 3.8000000000000003, 0, 4.9886000000000006E-11, -3.9200000000000005E-13, -5.0144E-11, 3.9200000000000005E-13, 4.9886000000000006E-11
DataValue, 3.9, 0, 4.9983000000000005E-11, 3.6000000000000003E-13, -5.0230000000000004E-11, 3.6000000000000003E-13, 4.9983000000000005E-11
DataValue, 4, 0, 5.0171E-11, 1.06E-13, -5.0252000000000005E-11, 1.06E-13, 5.0171E-11
DataValue, 4.1, 0, 5.0411000000000006E-11, -4.5100000000000005E-13, -5.0097000000000007E-11, 4.5100000000000005E-13, 5.0411000000000006E-11
DataValue, 4.2, 0, 4.9876000000000004E-11, 4E-15, -5.0103000000000007E-11, 4E-15, 4.9876000000000004E-11
DataValue, 4.3, 0, 4.9867000000000005E-11, -5.6E-14, -5.0204000000000007E-11, 5.6E-14, 4.9867000000000005E-11
DataValue, 4.4, 0, 4.9802E-11, -1.9E-14, -5.0225000000000006E-11, 1.9E-14, 4.9802E-11
DataValue, 4.5, 0, 4.9893E-11, -2.12E-13, -5.0196E-11, 2.12E-13, 4.9893E-11
DataValue, 4.6000000000000005, 0, 4.9682E-11, -7.6E-14, -4.9712000000000006E-11, 7.6E-14, 4.9682E-11
DataValue, 4.7, 0, 4.9577000000000005E-11, -6.1900000000000009E-13, -4.9999000000000006E-11, 6.1900000000000009E-13, 4.9577000000000005E-11
DataValue, 4.8, 0, 4.9748000000000005E-11, -7.100000000000001E-13, -4.9996000000000006E-11, 7.100000000000001E-13, 4.9748000000000005E-11
DataValue, 4.9, 0, 4.9559000000000006E-11, -5.700000000000001E-14, -4.9980000000000005E-11, 5.700000000000001E-14, 4.9559000000000006E-11
DataValue, 5, 0, 4.9952000000000004E-11, -1.59E-13, -4.9994E-11, 1.59E-13, 4.9952000000000004E-11
DataValue, 5.1000000000000005, 0, 4.9624E-11, -2.0300000000000002E-13, -4.9798E-11, 2.0300000000000002E-13, 4.9624E-11
